Frequency (MHz)	"Ang(S(2,1)) (Deg) : pol_switch_cirular_mode_pol1"	"Ang(S(2,1)) (Deg) : pol_switch_cirular_mode_pol2"
50	-1.33934	-98.8605
50.2	-84.8956	-53.8318
50.4	45.4091	-87.9954
50.6	-14.9802	-111.399
50.8	175.133	-67.7589
51	-74.298	-101.148
51.2	-165.518	-68.887
51.4	1.12164	-97.6304
51.6	-77.9238	-102.438
51.8	-5.92893	-72.2152
52	16.6573	-107.269
52.2	67.7341	-79.9302
52.4	-36.8506	-96.9367
52.6	43.7435	-67.1218
52.8	75.2621	-72.5649
53	67.5252	-75.7244
53.2	96.1125	-62.4661
53.4	40.1189	-90.6503
53.6	-92.9653	-70.7201
53.8	57.0521	-97.3074
54	-10.7198	-93.1694
54.2	-67.4293	-76.9247
54.4	98.6643	-84.9193
54.6	65.6147	-91.3243
54.8	-30.7107	-120.847
55	164.594	-94.41
55.2	-5.58187	-110.317
55.4	17.6359	-107.201
55.6	-14.7154	-117.185
55.8	-75.0195	-100.875
56	18.6474	-108.963
56.2	113.884	-104.998
56.4	-53.3836	-104.752
56.6	-149.149	-112.127
56.8	-38.3983	-128.835
57	12.6355	-114.868
57.2	-60.5688	-110.953
57.4	6.39286	-119.166
57.6	-15.5506	-106.261
57.8	33.4629	-132.79
58	-4.71867	-114.359
58.2	-47.9799	-122.564
58.4	57.3329	-127.487
58.6	-1.27779	-118.142
58.8	-6.78231	-137.772
59	-78.5335	-121.903
59.2	-45.29	-127.356
59.4	-32.695	-133.857
59.6	-47.4439	-137.397
59.8	-35.5718	-128.323
60	-52.4905	-129.72
60.2	-13.7588	-137.249
60.4	-40.0495	-141.177
60.6	-34.503	-145.956
60.8	-44.8508	-132.347
61	-63.36	-149.719
61.2	-67.1686	-134.804
61.4	-38.7786	-146.092
61.6	-55.1845	-152.304
61.8	-47.6219	-148.31
62	-66.0345	-143.052
62.2	-38.7613	-157.47
62.4	-26.1996	-146.316
62.6	-63.5668	-144.468
62.8	-56.4552	-150.884
63	-30.4886	-149.455
63.2	-74.1591	-153.978
63.4	-48.7848	-163.2
63.6	-48.428	-158.868
63.8	-74.6236	-162.832
64	-77.0256	-161.857
64.2	-61.7913	-159.617
64.4	-57.0302	-162.026
64.6	-74.0763	-164.795
64.8	-70.3232	-168.016
65	-54.6645	-170.322
65.2	-69.6468	-166.235
65.4	-57.3869	-173.783
65.6	-67.2265	-167.158
65.8	-73.3945	-176.312
66	-64.1448	-178.231
66.2	-88.2018	-173.467
66.4	-90.315	-176.099
66.6	-83.9211	178.694
66.8	-78.0456	-176
67	-86.2768	177.815
67.2	-91.5595	179.021
67.4	-92.362	176.331
67.6	-78.0028	174.576
67.8	-102.918	175.968
68	-81.1664	168.143
68.2	-98.3456	169.756
68.4	-95.2636	171.69
68.6	-96.0782	167.09
68.8	-99.4337	165.309
69	-92.6209	164.208
69.2	-98.8616	163.886
69.4	-98.8024	162.314
69.6	-90.8591	165.083
69.8	-108.854	158.801
70	-103.671	158.764
70.2	-110.982	155.973
70.4	-111.307	155.691
70.6	-94.0721	155.606
70.8	-105.125	151.412
71	-106.227	151.501
71.2	-112.596	149.387
71.4	-115.501	147.214
71.6	-115.179	148.558
71.8	-115.272	145.263
72	-119.851	144.475
72.2	-118.326	140.905
72.4	-115.524	141.824
72.6	-120.634	140.798
72.8	-130.505	140.3
73	-127.461	136.144
73.2	-129.071	135.875
73.4	-128.31	134.596
73.6	-126.956	132.646
73.8	-127.279	131.522
74	-127.943	129.673
74.2	-134.881	128.531
74.4	-139.894	126.483
74.6	-137.719	125.047
74.8	-137.062	124.639
75	-134.034	122.323
75.2	-143.847	120.687
75.4	-141.231	119.303
75.6	-141.734	118.366
75.8	-145.726	116.496
76	-147.349	115.241
76.2	-150.431	115.168
76.4	-149.692	111.771
76.6	-148.054	110.948
76.8	-148.656	109.349
77	-152.483	108.915
77.2	-154.278	107.083
77.4	-153.719	105.338
77.6	-156.326	104.228
77.8	-156.785	101.5
78	-162.235	100.277
78.2	-161.399	99.0167
78.4	-164.324	97.2677
78.6	-164.274	96.4533
78.8	-164.861	94.1301
79	-168.293	92.7145
79.2	-171.137	91.4181
79.4	-171.845	90.3343
79.6	-172.647	88.3293
79.8	-173.486	86.5299
80	-173.83	85.8924
80.2	-177.723	85.0801
80.4	-179.109	82.1247
80.6	179.458	80.6671
80.8	177.021	78.3526
81	175.295	77.8852
81.2	175.359	75.5316
81.4	173.823	73.9472
81.6	171.81	72.7918
81.8	169.134	70.9762
82	168.652	69.4204
82.2	166.166	67.7898
82.4	164.984	66.0302
82.6	163.757	64.8708
82.8	161.787	63.1165
83	160.39	61.4541
83.2	159.022	59.9792
83.4	157.301	58.0145
83.6	154.598	56.5408
83.8	153.592	54.5926
84	152.715	52.8944
84.2	150.526	51.5188
84.4	148.692	49.9448
84.6	148.97	47.9813
84.8	146.675	47.131
85	144.201	44.7566
85.2	142.644	43.1401
85.4	141	41.308
85.6	137.589	39.4093
85.8	137.963	37.687
86	136.184	36.0931
86.2	133.416	34.294
86.4	132.59	32.7751
86.6	130.967	30.9353
86.8	129.262	29.3063
87	127.304	27.5233
87.2	124.915	25.8666
87.4	123.541	23.93
87.6	122.367	22.042
87.8	120.054	20.6728
88	118.161	18.7004
88.2	117.016	16.8056
88.4	114.631	15.0835
88.6	113.23	13.3161
88.8	110.985	11.4641
89	109.298	9.40754
89.2	106.841	7.59974
89.4	105.839	5.72747
89.6	103.62	4.00695
89.8	101.92	2.04386
90	99.4645	0.00499601
90.2	98.3561	-1.71534
90.4	96.2219	-3.68933
90.6	94.3769	-5.68116
90.8	91.9509	-7.53927
91	90.4508	-9.55443
91.2	88.3054	-11.4963
91.4	86.2929	-13.3951
91.6	84.3996	-15.5162
91.8	82.1717	-17.4363
92	80.141	-19.6333
92.2	78.0568	-21.5001
92.4	76.2365	-23.6149
92.6	73.9267	-25.7778
92.8	72.2552	-27.7482
93	69.9256	-30.0005
93.2	67.8015	-32.0603
93.4	65.4018	-34.2447
93.6	63.4015	-36.411
93.8	61.2531	-38.5809
94	58.9274	-40.7837
94.2	57.0668	-42.9727
94.4	54.7686	-45.2932
94.6	52.3053	-47.5243
94.8	50.2267	-49.8492
95	47.8539	-52.1337
95.2	45.6289	-54.4509
95.4	43.2216	-56.8394
95.6	40.8329	-59.1876
95.8	38.4221	-61.6534
96	35.9645	-64.0225
96.2	33.525	-66.4951
96.4	31.1626	-68.9715
96.6	28.7217	-71.4448
96.8	26.1056	-74.0345
97	23.5086	-76.6322
97.2	21.004	-79.1671
97.4	18.3914	-81.8159
97.6	15.5948	-84.4314
97.8	12.9401	-87.1857
98	10.3837	-89.9223
98.2	7.57883	-92.6015
98.4	4.89353	-95.3812
98.6	1.96117	-98.2134
98.8	-0.763429	-101.049
99	-3.63782	-103.936
99.2	-6.50698	-106.857
99.4	-9.45544	-109.832
99.6	-12.4099	-112.781
99.8	-15.5047	-115.809
100	-18.5088	-118.85
100.2	-21.6561	-121.955
100.4	-24.7035	-125.036
100.6	-27.8301	-128.219
100.8	-30.9692	-131.379
101	-34.1655	-134.585
101.2	-37.3882	-137.834
101.4	-40.7682	-141.101
101.6	-44.0069	-144.422
101.8	-47.3059	-147.764
102	-50.6941	-151.099
102.2	-54.06	-154.497
102.4	-57.4491	-157.872
102.6	-60.8841	-161.317
102.8	-64.3906	-164.775
103	-67.84	-168.222
103.2	-71.3534	-171.748
103.4	-74.862	-175.228
103.6	-78.4059	-178.724
103.8	-81.9648	177.772
104	-85.4747	174.226
104.2	-89.0185	170.699
104.4	-92.581	167.173
104.6	-96.1973	163.612
104.8	-99.7201	160.084
105	-103.26	156.538
105.2	-106.807	153.018
105.4	-110.317	149.512
105.6	-113.915	146
105.8	-117.413	142.496
106	-120.859	138.988
106.2	-124.318	135.513
106.4	-127.777	132.036
106.6	-131.186	128.604
106.8	-134.634	125.165
107	-137.975	121.755
107.2	-141.297	118.331
107.4	-144.683	114.959
107.6	-147.973	111.583
107.8	-151.182	108.228
108	-154.429	104.9
108.2	-157.62	101.584
108.4	-160.781	98.287
108.6	-163.952	95.0201
108.8	-167.089	91.7665
109	-170.208	88.538
109.2	-173.269	85.2942
109.4	-176.312	82.0996
109.6	-179.346	78.9158
109.8	177.633	75.7432
110	174.625	72.6032
110.2	171.645	69.4541
110.4	168.624	66.3474
110.6	165.684	63.2568
110.8	162.762	60.1747
111	159.836	57.1236
111.2	156.906	54.0586
111.4	154.007	51.0366
111.6	151.095	48.028
111.8	148.226	45.0275
112	145.362	42.0402
112.2	142.519	39.0771
112.4	139.618	36.0988
112.6	136.763	33.2025
112.8	133.929	30.2686
113	131.1	27.3501
113.2	128.253	24.474
113.4	125.46	21.5855
113.6	122.623	18.7164
113.8	119.806	15.8814
114	117.006	13.015
114.2	114.252	10.1911
114.4	111.43	7.37378
114.6	108.652	4.56726
114.8	105.856	1.77432
115	103.117	-1.02156
115.2	100.315	-3.78832
115.4	97.5424	-6.55742
115.6	94.8146	-9.29804
115.8	92.0218	-12.0538
116	89.2692	-14.7731
116.2	86.531	-17.512
116.4	83.7837	-20.1868
116.6	81.0736	-22.9246
116.8	78.3076	-25.6216
117	75.5767	-28.311
117.2	72.8401	-31.0007
117.4	70.1108	-33.6615
117.6	67.3946	-36.3231
117.8	64.6915	-38.9588
118	61.9683	-41.6147
118.2	59.2664	-44.2508
118.4	56.5789	-46.8791
118.6	53.9004	-49.4854
118.8	51.1617	-52.112
119	48.4884	-54.737
119.2	45.827	-57.3
119.4	43.1511	-59.8972
119.6	40.4804	-62.5101
119.8	37.8273	-65.0755
120	35.15	-67.6396
120.2	32.5303	-70.241
120.4	29.8537	-72.7875
120.6	27.2307	-75.341
120.8	24.612	-77.8894
121	21.9313	-80.4512
121.2	19.3415	-82.9856
121.4	16.7554	-85.4915
121.6	14.1265	-88.0564
121.8	11.562	-90.586
122	8.96258	-93.0619
122.2	6.40789	-95.593
122.4	3.79169	-98.1025
122.6	1.21532	-100.613
122.8	-1.34403	-103.093
123	-3.89359	-105.625
123.2	-6.44075	-108.101
123.4	-8.97138	-110.595
123.6	-11.5001	-113.088
123.8	-13.994	-115.555
124	-16.5055	-118.058
124.2	-19.0191	-120.543
124.4	-21.5154	-123.008
124.6	-24.0039	-125.474
124.8	-26.4823	-127.952
125	-28.9308	-130.414
125.2	-31.4415	-132.901
125.4	-33.8865	-135.366
125.6	-36.3105	-137.819
125.8	-38.7786	-140.267
126	-41.1947	-142.743
126.2	-43.594	-145.195
126.4	-45.9949	-147.64
126.6	-48.426	-150.111
126.8	-50.8277	-152.531
127	-53.1938	-154.999
127.2	-55.5851	-157.459
127.4	-57.9705	-159.904
127.6	-60.3112	-162.366
127.8	-62.682	-164.791
128	-65.0432	-167.241
128.2	-67.379	-169.699
128.4	-69.7008	-172.149
128.6	-72.0546	-174.583
128.8	-74.356	-177.035
129	-76.7278	-179.485
129.2	-79	178.069
129.4	-81.3078	175.61
129.6	-83.6007	173.179
129.8	-85.9099	170.731
130	-88.2087	168.274
130.2	-90.4738	165.834
130.4	-92.7897	163.42
130.6	-95.0537	160.947
130.8	-97.2888	158.501
131	-99.5959	156.083
131.2	-101.859	153.614
131.4	-104.122	151.161
131.6	-106.354	148.717
131.8	-108.624	146.269
132	-110.839	143.821
132.2	-113.145	141.366
132.4	-115.338	138.937
132.6	-117.644	136.48
132.8	-119.899	134.05
133	-122.122	131.592
133.2	-124.353	129.144
133.4	-126.627	126.708
133.6	-128.88	124.254
133.8	-131.106	121.803
134	-133.388	119.354
134.2	-135.638	116.908
134.4	-137.882	114.464
134.6	-140.124	111.998
134.8	-142.388	109.556
135	-144.618	107.126
135.2	-146.893	104.668
135.4	-149.211	102.243
135.6	-151.426	99.7886
135.8	-153.706	97.3447
136	-156.004	94.8996
136.2	-158.298	92.4446
136.4	-160.561	89.9989
136.6	-162.816	87.5766
136.8	-165.167	85.1107
137	-167.462	82.6877
137.2	-169.723	80.2403
137.4	-172.015	77.7983
137.6	-174.346	75.3548
137.8	-176.67	72.9076
138	-178.979	70.471
138.2	178.675	68.0461
138.4	176.379	65.605
138.6	174.029	63.1794
138.8	171.701	60.7166
139	169.348	58.2919
139.2	167.014	55.8532
139.4	164.627	53.4162
139.6	162.288	50.9786
139.8	159.935	48.5771
140	157.579	46.1291
140.2	155.158	43.6815
140.4	152.799	41.2595
140.6	150.425	38.8128
140.8	148.056	36.3861
141	145.653	33.9637
141.2	143.24	31.5268
141.4	140.848	29.0947
141.6	138.471	26.6591
141.8	136.086	24.2241
142	133.662	21.8174
142.2	131.251	19.3761
142.4	128.857	16.9482
142.6	126.417	14.4981
142.8	124.007	12.0722
143	121.63	9.64942
143.2	119.185	7.21401
143.4	116.759	4.79165
143.6	114.284	2.37594
143.8	111.875	-0.0608131
144	109.451	-2.51104
144.2	106.998	-4.93206
144.4	104.649	-7.36794
144.6	102.156	-9.7957
144.8	99.7181	-12.2346
145	97.2695	-14.6636
145.2	94.8339	-17.0859
145.4	92.4257	-19.5017
145.6	89.9502	-21.9687
145.8	87.5239	-24.393
146	85.1031	-26.8397
146.2	82.623	-29.2553
146.4	80.1888	-31.6904
146.6	77.7179	-34.1391
146.8	75.3285	-36.5707
147	72.8924	-39.0402
147.2	70.4304	-41.4728
147.4	67.9461	-43.9013
147.6	65.5395	-46.3657
147.8	63.0862	-48.812
148	60.6787	-51.2523
148.2	58.2563	-53.7061
148.4	55.7681	-56.1648
148.6	53.3512	-58.6329
148.8	50.9156	-61.0967
149	48.4573	-63.5593
149.2	46.0269	-66.0438
149.4	43.5563	-68.5552
149.6	41.1814	-71.0274
149.8	38.7508	-73.4996
150	36.3644	-75.9873
150.2	33.9175	-78.4935
150.4	31.507	-80.9678
150.6	29.0604	-83.4997
150.8	26.658	-85.9777
151	24.2087	-88.494
151.2	21.8578	-91.0058
151.4	19.4285	-93.5444
151.6	17.0413	-96.0712
151.8	14.688	-98.6087
152	12.3635	-101.138
152.2	9.91762	-103.704
152.4	7.57566	-106.267
152.6	5.19467	-108.841
152.8	2.91745	-111.431
153	0.515041	-114.037
153.2	-1.79971	-116.607
153.4	-4.12567	-119.233
153.6	-6.42115	-121.85
153.8	-8.70268	-124.461
154	-10.975	-127.111
154.2	-13.3117	-129.77
154.4	-15.5523	-132.422
154.6	-17.8231	-135.104
154.8	-20.0651	-137.772
155	-22.3028	-140.475
155.2	-24.5038	-143.177
155.4	-26.7345	-145.921
155.6	-28.9914	-148.637
155.8	-31.2103	-151.393
156	-33.3346	-154.187
156.2	-35.67	-156.945
156.4	-37.8003	-159.759
156.6	-40.0838	-162.577
156.8	-42.3334	-165.394
157	-44.5585	-168.252
157.2	-46.8131	-171.075
157.4	-49.0851	-173.951
157.6	-51.4562	-176.833
157.8	-53.7329	-179.725
158	-56.0879	177.355
158.2	-58.4099	174.432
158.4	-60.839	171.533
158.6	-63.2472	168.553
158.8	-65.7746	165.642
159	-68.2883	162.666
159.2	-70.7255	159.68
159.4	-73.301	156.698
159.6	-75.8641	153.704
159.8	-78.531	150.676
160	-81.1394	147.684
160.2	-83.8696	144.685
160.4	-86.4904	141.648
160.6	-89.2689	138.601
160.8	-92.0136	135.577
161	-94.8309	132.545
161.2	-97.5113	129.494
161.4	-100.373	126.458
161.6	-103.204	123.409
161.8	-106.018	120.396
162	-108.835	117.338
162.2	-111.717	114.29
162.4	-114.597	111.263
162.6	-117.406	108.23
162.8	-120.291	105.206
163	-123.131	102.184
163.2	-126.006	99.1627
163.4	-128.89	96.1573
163.6	-131.766	93.1541
163.8	-134.492	90.1744
164	-137.368	87.1691
164.2	-140.216	84.2137
164.4	-143.077	81.2324
164.6	-145.841	78.2896
164.8	-148.611	75.3945
165	-151.284	72.4295
165.2	-154.11	69.5329
165.4	-156.774	66.624
165.6	-159.465	63.7636
165.8	-162.144	60.8897
166	-164.776	58.0389
166.2	-167.335	55.2079
166.4	-169.963	52.3899
166.6	-172.486	49.596
166.8	-175.02	46.8062
167	-177.552	44.0558
167.2	179.92	41.3336
167.4	177.503	38.6322
167.6	175.106	35.8636
167.8	172.699	33.1978
168	170.377	30.5461
168.2	168.081	27.879
168.4	165.787	25.3069
168.6	163.526	22.6644
168.8	161.246	20.078
169	159.07	17.4971
169.2	156.945	14.9397
169.4	154.79	12.4217
169.6	152.749	9.87902
169.8	150.673	7.41017
170	148.603	4.9268
170.2	146.868	2.48359
170.4	144.696	0.0254486
170.6	142.789	-2.38882
170.8	140.872	-4.76913
171	139.015	-7.14443
171.2	137.304	-9.54592
171.4	135.437	-11.8847
171.6	133.73	-14.2323
171.8	131.925	-16.5179
172	130.103	-18.8524
172.2	128.548	-21.0828
172.4	126.867	-23.3914
172.6	125.141	-25.6425
172.8	123.587	-27.8782
173	122.018	-30.0678
173.2	120.357	-32.2728
173.4	118.962	-34.4399
173.6	117.746	-36.7275
173.8	115.817	-38.7136
174	114.492	-40.8488
174.2	112.997	-43.0657
174.4	111.51	-45.1652
174.6	110.177	-47.3584
174.8	108.824	-49.359
175	107.16	-51.5156
175.2	106.095	-53.5522
175.4	104.698	-55.5079
175.6	103.592	-57.5553
175.8	102.035	-59.6072
176	100.723	-61.6546
176.2	99.6648	-63.6764
176.4	98.1778	-65.5954
176.6	96.7143	-67.6016
176.8	95.7482	-69.6048
177	94.0087	-71.5323
177.2	92.9822	-73.479
177.4	91.9902	-75.4073
177.6	90.6379	-77.262
177.8	89.2589	-79.2206
178	88.321	-81.1077
178.2	87.0774	-82.925
178.4	85.8017	-84.7573
178.6	84.5132	-86.5062
178.8	83.0567	-88.5264
179	82.1276	-90.2561
179.2	80.8652	-92.1895
179.4	79.6656	-93.8157
179.6	78.5676	-95.7658
179.8	77.5529	-97.4968
180	76.2907	-99.4287
180.2	74.8806	-101.02
180.4	73.957	-102.816
180.6	73.0239	-104.573
180.8	71.6767	-106.323
181	70.158	-107.904
181.2	68.8592	-109.918
181.4	67.8044	-111.572
181.6	66.336	-113.203
181.8	65.2297	-115.028
182	63.9665	-116.524
182.2	62.9217	-118.204
182.4	61.9253	-119.957
182.6	60.6268	-121.67
182.8	59.2684	-123.101
183	58.0895	-124.742
183.2	56.9379	-126.49
183.4	55.9228	-128.087
183.6	54.9125	-129.65
183.8	53.555	-131.318
184	51.9146	-132.85
184.2	50.4081	-134.708
184.4	49.3748	-135.917
184.6	48.3138	-137.762
184.8	46.9771	-139.084
185	46.0078	-140.716
185.2	44.4683	-142.197
185.4	43.372	-143.607
185.6	42.0197	-145.446
185.8	41.529	-146.833
186	38.9787	-148.554
186.2	38.5196	-149.62
186.4	36.5209	-151.14
186.6	35.6692	-152.512
186.8	34.5163	-153.71
187	32.8899	-155.462
187.2	32.2579	-156.822
187.4	30.9128	-158.413
187.6	29.1074	-160.224
187.8	27.5193	-161.623
188	25.7227	-162.766
188.2	25.3215	-164.03
188.4	23.818	-165.668
188.6	22.669	-167.107
188.8	21.7291	-168.466
189	20.096	-169.588
189.2	18.9799	-171.101
189.4	17.79	-172.767
189.6	16.3375	-173.803
189.8	15.1825	-175.259
190	14.1342	-176.458
190.2	12.9642	-177.355
190.4	10.9798	-179.088
190.6	9.42764	179.329
190.8	8.56751	177.992
191	7.5361	176.99
191.2	6.30513	176.1
191.4	4.80773	174.224
191.6	3.72557	172.776
191.8	1.88503	171.87
192	1.3384	170.554
192.2	-1.06789	169.523
192.4	-1.36354	167.915
192.6	-2.52034	166.553
192.8	-4.7014	165.26
193	-6.46168	164.834
193.2	-6.41927	162.979
193.4	-8.40746	161.379
193.6	-9.77702	160.388
193.8	-11.9796	159.577
194	-12.3673	158.179
194.2	-13.4672	156.84
194.4	-14.6947	155.562
194.6	-16.5795	153.88
194.8	-17.6851	152.583
195	-18.9986	152.038
195.2	-20.1112	150.763
195.4	-21.3293	149.176
195.6	-23.1122	148.141
195.8	-25.2784	147.122
196	-25.7141	145.761
196.2	-26.9376	145.204
196.4	-28.5944	144.069
196.6	-29.1309	142.573
196.8	-30.4739	142.398
197	-31.2468	140.485
197.2	-33.308	138.973
197.4	-34.864	138.344
197.6	-36.2203	137.368
197.8	-36.7497	135.435
198	-38.5735	134.275
198.2	-38.9911	132.503
198.4	-41.1475	132.041
198.6	-43.0674	130.873
198.8	-43.4094	129.998
199	-44.6167	128.407
199.2	-46.4757	128.576
199.4	-46.9475	126.217
199.6	-49.0561	125.703
199.8	-49.1814	124.294
200	-51.5313	123.418
200.2	-52.3161	122.129
200.4	-54.586	120.4
200.6	-54.5158	120.265
200.8	-57.1086	118.208
201	-57.269	117.598
201.2	-59.1783	117.319
201.4	-61.3796	115.263
201.6	-60.9673	113.139
201.8	-62.5776	113.325
202	-63.9471	112.059
202.2	-64.6571	111.539
202.4	-67.4301	109.384
202.6	-68.2269	108.294
202.8	-69.052	107.991
203	-71.5324	106.828
203.2	-71.3601	105.164
203.4	-72.5775	103.597
203.6	-73.9876	103.812
203.8	-76.2385	101.983
204	-77.1685	102.686
204.2	-78.2451	100.298
204.4	-80.5524	98.4042
204.6	-78.499	98.1376
204.8	-81.107	98.0048
205	-82.6701	94.9123
205.2	-85.3475	93.7848
205.4	-85.9147	93.8418
205.6	-87.3031	93.3377
205.8	-89.5689	91.8735
206	-88.7256	89.8523
206.2	-90.7448	90.5075
206.4	-92.1992	89.0797
206.6	-91.667	87.8865
206.8	-94.5524	86.7302
207	-97.3763	86.8477
207.2	-97.7664	84.3103
207.4	-97.7046	84.1306
207.6	-99.6698	82.0233
207.8	-101.092	81.3282
208	-100.816	79.4357
208.2	-104.178	78.2997
208.4	-104.538	80.8571
208.6	-106.692	76.7703
208.8	-108.427	76.7579
209	-108.581	75.1427
209.2	-108.929	73.7136
209.4	-112.225	71.439
209.6	-113.413	73.2604
209.8	-114.629	72.7951
210	-116.313	71.1295
210.2	-117.562	68.9664
210.4	-116.222	68.4769
210.6	-119.975	67.4738
210.8	-120.798	66.4113
211	-122.54	65.6749
211.2	-121.385	64.0257
211.4	-124.752	64.4116
211.6	-124.008	63.5761
211.8	-125.864	60.857
212	-127.059	61.1223
212.2	-129.305	57.4649
212.4	-130.012	58.7455
212.6	-133.42	59.0197
212.8	-131.842	56.7096
213	-134.863	55.2587
213.2	-136.638	53.9118
213.4	-136.194	50.9688
213.6	-136.97	51.8112
213.8	-138.216	47.4132
214	-140.857	49.4598
214.2	-142.138	49.04
214.4	-142.585	47.6279
214.6	-144.738	46.5599
214.8	-146.397	44.7343
215	-146.958	43.8188
215.2	-146.858	41.3489
215.4	-148.254	43.946
215.6	-150.887	41.9499
215.8	-150.71	39.3594
216	-153.058	35.3472
216.2	-153.87	37.1291
216.4	-156.323	36.6955
216.6	-156.48	35.0961
216.8	-158.105	33.4522
217	-160.212	30.7137
217.2	-160.555	34.796
217.4	-159.958	31.2612
217.6	-164.582	31.3604
217.8	-163.917	28.7576
218	-165.572	29.6679
218.2	-166.272	24.5303
218.4	-166.762	26.6615
218.6	-168.795	24.9063
218.8	-168.65	20.4932
219	-170.634	22.3162
219.2	-173.826	21.2902
219.4	-172.795	18.4144
219.6	-174.781	18.6054
219.8	-174.76	17.511
220	-175.451	18.0815
220.2	-177.816	14.4664
220.4	-179.14	13.7923
220.6	179.735	15.2033
220.8	176.634	15.2386
221	173.431	10.6081
221.2	173.647	11.7797
221.4	172.78	8.35021
221.6	172.836	8.02323
221.8	171.511	7.61764
222	168.629	7.81365
222.2	168.616	6.49296
222.4	165.453	4.96129
222.6	166.959	5.85546
222.8	166.817	5.28362
223	163.769	1.64581
223.2	163.063	2.50513
223.4	162.3	-2.59461
223.6	156.856	-4.02646
223.8	160.354	-4.42797
224	154.711	-6.91427
224.2	158.979	-6.12497
224.4	153.797	-4.24575
224.6	156.382	-7.40967
224.8	150.721	-9.88795
225	148.973	-10.1295
225.2	149.08	-9.77862
225.4	147.62	-13.4077
225.6	146.707	-10.6601
225.8	143.998	-13.8251
226	146.064	-14.0237
226.2	144.344	-15.5284
226.4	144.452	-18.2808
226.6	139.535	-17.0739
226.8	138.243	-16.6394
227	136.313	-19.8701
227.2	138.392	-20.3305
227.4	138.115	-18.6787
227.6	133.484	-22.5457
227.8	134.314	-25.8896
228	134.616	-26.1423
228.2	129.5	-29.4677
228.4	131.826	-27.894
228.6	130.065	-28.7038
228.8	124.675	-28.4841
229	124.279	-29.5646
229.2	126.05	-30.9045
229.4	124.385	-34.2144
229.6	120.72	-38.1102
229.8	125.362	-38.0443
