Frequency (MHz)	Ang(S(2,1)) (Deg) : Pol1	Ang(S(2,1)) (Deg) : Pol2
50	-178.591	177.193
50.2	86.0649	-38.4804
50.4	-3.03605	55.6597
50.6	-24.6546	24.0051
50.8	34.3088	-159.452
51	47.3458	-105.951
51.2	-158.402	162.392
51.4	-98.3124	179.58
51.6	18.7742	66.3256
51.8	-127.039	160.297
52	171.107	172.969
52.2	-18.0461	-138.147
52.4	-29.4484	161.927
52.6	135.053	-42.9239
52.8	-171.153	88.6175
53	168.499	32.2084
53.2	73.0981	-100.494
53.4	37.6071	-153.026
53.6	-107.804	5.23786
53.8	-141.382	-39.9415
54	-9.28807	-154.712
54.2	-143.477	-3.97742
54.4	57.8297	23.7091
54.6	140.986	-122.292
54.8	-119.867	122.038
55	-46.5261	-69.5447
55.2	-76.196	69.9231
55.4	-102.139	-162.454
55.6	2.64387	-39.8473
55.8	106.219	53.4334
56	51.6682	-25.6444
56.2	94.9339	-94.5221
56.4	-70.8355	157.383
56.6	-133.914	-81.2
56.8	10.1495	8.2578
57	-84.6382	120.001
57.2	93.702	106.455
57.4	-83.1393	16.0371
57.6	-49.6619	119.968
57.8	-107.91	108.013
58	28.3403	71.0014
58.2	45.0877	149.709
58.4	-149.077	38.7047
58.6	-155.698	50.4378
58.8	-96.3555	110.583
59	116.04	43.7179
59.2	-30.1222	-167.787
59.4	-110.778	-86.8078
59.6	38.7819	155.371
59.8	36.9334	-119.257
60	57.3805	113.148
60.2	124.833	-14.2588
60.4	-149.52	-153.117
60.6	67.3104	142.905
60.8	-88.249	113.517
61	178.491	155.944
61.2	73.8025	116.064
61.4	129.041	88.2661
61.6	70.8955	93.4679
61.8	114.263	48.6035
62	-160.687	178.058
62.2	142.983	106.412
62.4	-167.116	48.0167
62.6	157.798	115.081
62.8	121.597	118.318
63	-81.3269	-146.815
63.2	105.922	-139.717
63.4	151.682	143.156
63.6	7.99418	67.6848
63.8	-28.6594	173.425
64	-153.409	31.6198
64.2	92.0584	101.496
64.4	176.09	94.2283
64.6	91.7874	-11.4332
64.8	-4.0493	-162.699
65	-155.974	77.0832
65.2	11.5778	-13.1993
65.4	-29.6523	109.401
65.6	-56.7915	144.497
65.8	-128.141	95.7921
66	90.5142	75.5423
66.2	-113.484	87.338
66.4	5.34545	-11.4078
66.6	-56.3937	168.075
66.8	15.0792	-164.903
67	125.242	122.303
67.2	-150.406	12.1213
67.4	-33.8952	59.6917
67.6	-166.744	82.087
67.8	104.969	31.7872
68	-167.206	139.86
68.2	-79.7358	47.9848
68.4	164.314	72.7204
68.6	88.5461	91.8169
68.8	151.723	68.1245
69	77.7632	81.5829
69.2	-136.003	47.9108
69.4	22.3685	169.227
69.6	71.0111	52.6427
69.8	-138.987	82.1987
70	173.039	153.038
70.2	145.386	131.526
70.4	166.111	133.371
70.6	153.495	145.866
70.8	-175.272	72.4282
71	7.34111	109.333
71.2	22.4557	90.3915
71.4	-36.8835	87.5384
71.6	95.378	102.672
71.8	-33.8181	89.9494
72	96.3335	96.2612
72.2	-87.4941	83.6519
72.4	52.5384	56.6042
72.6	49.5545	45.5625
72.8	21.9619	58.4841
73	-71.607	20.9692
73.2	133.03	91.1746
73.4	121.577	134.182
73.6	-102.166	100.073
73.8	-82.1543	80.4983
74	158.63	68.7668
74.2	-148.958	101.844
74.4	-150.648	83.0009
74.6	128.928	91.5673
74.8	114.742	85.619
75	-134.888	90.962
75.2	76.4567	62.4658
75.4	-13.6081	98.9736
75.6	126.856	72.937
75.8	78.889	68.5321
76	-132.672	87.3101
76.2	-135.934	101.513
76.4	166.887	83.5032
76.6	-93.3025	49.9923
76.8	37.1586	53.2499
77	131.419	72.3311
77.2	130.761	73.1441
77.4	43.2162	59.4412
77.6	-156.615	59.1578
77.8	64.2191	66.1805
78	-135.842	57.0361
78.2	-139.478	56.2355
78.4	141.695	55.4484
78.6	-122.11	67.4183
78.8	-175.532	65.8882
79	166.439	61.5143
79.2	163.016	48.9654
79.4	128.022	52.638
79.6	118.719	73.2649
79.8	-178.147	68.7606
80	-145.592	65.1433
80.2	-166.935	68.6654
80.4	-136.828	67.9661
80.6	179.573	62.5921
80.8	-170.247	61.0592
81	-172.039	53.4609
81.2	-139.085	63.0219
81.4	158.89	59.908
81.6	174.741	52.9031
81.8	122.499	53.1978
82	174.615	57.0485
82.2	128.241	55.3195
82.4	123.614	61.1176
82.6	168.045	56.9172
82.8	153.699	57.6961
83	103.527	50.8524
83.2	-175.601	62.0454
83.4	173.231	45.4407
83.6	176.907	55.4694
83.8	103.295	56.4856
84	122.649	40.1173
84.2	172.021	39.65
84.4	137.574	50.8084
84.6	156.26	37.5769
84.8	176.418	51.2102
85	170.324	43.4882
85.2	147.977	42.5281
85.4	145.463	38.1609
85.6	136.216	37.0051
85.8	117.944	35.1518
86	127.071	43.4451
86.2	152.571	41.2087
86.4	118.497	36.5428
86.6	150.25	39.1723
86.8	170.56	39.7996
87	134.983	35.5004
87.2	140.315	37.1395
87.4	156.314	29.5634
87.6	135.921	30.0204
87.8	144.285	31.8689
88	143.093	31.9703
88.2	134.503	24.9471
88.4	135.651	28.7744
88.6	124.848	19.0778
88.8	126.529	27.5565
89	129.896	27.6341
89.2	153.669	24.8419
89.4	135.487	22.821
89.6	103.592	24.72
89.8	125.612	22.0761
90	132.847	22.7944
90.2	119.964	17.7055
90.4	125.588	19.9397
90.6	119.838	19.9233
90.8	118.061	14.516
91	136.935	14.5519
91.2	123.297	12.8833
91.4	132.889	8.35145
91.6	129.304	13.8386
91.8	116.766	6.35895
92	116.113	6.97117
92.2	118.093	9.60147
92.4	114.258	9.68838
92.6	115.268	10.7124
92.8	112.396	4.87899
93	117.954	3.40028
93.2	105.217	5.27431
93.4	109.637	0.42134
93.6	112.36	0.608617
93.8	110.797	-2.6301
94	111.267	1.96913
94.2	101.78	-2.81214
94.4	99.5899	-5.90125
94.6	100.533	-4.80686
94.8	97.4346	-5.2935
95	93.7381	-8.36596
95.2	97.3729	-8.46599
95.4	92.7334	-13.0836
95.6	95.9304	-12.3402
95.8	94.5079	-14.0322
96	94.931	-15.017
96.2	90.4339	-13.6515
96.4	91.3595	-18.1314
96.6	89.5798	-19.3923
96.8	78.8041	-22.2257
97	82.2071	-22.8292
97.2	82.299	-23.8154
97.4	74.2366	-26.3563
97.6	68.1404	-27.6485
97.8	75.6194	-28.3362
98	74.3886	-30.2245
98.2	71.2541	-33.4808
98.4	71.7179	-32.1044
98.6	63.536	-37.4397
98.8	66.6996	-36.0838
99	63.2212	-39.241
99.2	63.0391	-40.8696
99.4	63.0131	-43.3834
99.6	57.7589	-45.5283
99.8	56.8158	-46.4246
100	52.6314	-49.0168
100.2	47.4406	-51.8095
100.4	48.9224	-52.6203
100.6	46.6706	-55.5261
100.8	43.4445	-56.7758
101	40.4484	-61.0479
101.2	38.6721	-62.2686
101.4	35.7782	-64.1927
101.6	32.274	-66.5202
101.8	29.7568	-67.6217
102	28.2371	-71.3074
102.2	27.5965	-73.6161
102.4	23.3724	-75.9055
102.6	22.7748	-79.0388
102.8	19.9631	-80.6333
103	17.8801	-82.5083
103.2	14.8007	-84.8289
103.4	13.4804	-87.5708
103.6	8.21134	-90.5226
103.8	5.64012	-93.4282
104	1.83136	-96.1054
104.2	-0.860623	-99.4906
104.4	-3.82983	-101.721
104.6	-5.3949	-105.622
104.8	-6.44359	-106.14
105	-10.137	-108.629
105.2	-11.7839	-112.582
105.4	-16.302	-115.418
105.6	-15.0533	-116.934
105.8	-16.8752	-120.294
106	-21.0196	-122.322
106.2	-25.9762	-127.499
106.4	-27.3023	-128.018
106.6	-32.0011	-132.293
106.8	-31.7257	-133.64
107	-37.3939	-137.637
107.2	-38.8677	-140.018
107.4	-40.5603	-141.795
107.6	-43.1477	-145.7
107.8	-46.4588	-148.952
108	-48.2929	-149.759
108.2	-49.9035	-152.974
108.4	-51.0615	-154.327
108.6	-56.0476	-157.561
108.8	-58.1745	-161.042
109	-60.1294	-162.262
109.2	-62.1479	-164.383
109.4	-63.8844	-168.259
109.6	-64.7339	-169.539
109.8	-67.3208	-171.826
110	-70.2223	-174.233
110.2	-73.4993	-177.327
110.4	-75.8565	-179.079
110.6	-77.2344	179.187
110.8	-80.4957	175.506
111	-81.3975	174.844
111.2	-83.0561	170.99
111.4	-85.3961	170.192
111.6	-89.667	165.746
111.8	-89.2519	165.774
112	-91.6188	163.34
112.2	-93.7903	160.578
112.4	-96.011	159.832
112.6	-98.3719	157.232
112.8	-99.1396	156.08
113	-101.911	152.584
113.2	-103.854	151.693
113.4	-106.554	148.363
113.6	-107.64	147.249
113.8	-109.33	145.326
114	-111.823	143.635
114.2	-114.327	140.742
114.4	-116.9	138.004
114.6	-118.463	136.36
114.8	-119.804	134.977
115	-122.548	132.286
115.2	-122.831	130.675
115.4	-123.942	131.235
115.6	-126.555	127.901
115.8	-129.636	124.416
116	-131.502	124.261
116.2	-131.26	124.164
116.4	-135.39	119.981
116.6	-135.986	118.645
116.8	-138.024	116.646
117	-139.445	114.769
117.2	-140.431	113.043
117.4	-143.623	110.715
117.6	-144.982	110.124
117.8	-146.89	107.682
118	-147.657	105.541
118.2	-150.298	104.036
118.4	-152.827	102.31
118.6	-153.304	101
118.8	-155.469	99.1
119	-156.794	97.3297
119.2	-158.448	95.1036
119.4	-160.817	92.8377
119.6	-162.743	91.4943
119.8	-164.069	89.5613
120	-163.897	89.6827
120.2	-166.537	86.9685
120.4	-170.061	84.3748
120.6	-169.379	84.88
120.8	-173.534	80.5762
121	-174.802	79.8096
121.2	-175.828	78.0998
121.4	-177.041	76.5571
121.6	-178.736	74.7777
121.8	179.444	72.7485
122	176.812	70.0764
122.2	176.533	69.5237
122.4	173.278	66.9918
122.6	172.035	66.3742
122.8	170.288	64.368
123	169.649	63.0592
123.2	168.154	60.9271
123.4	167.309	59.9805
123.6	166.848	59.7438
123.8	164.465	56.7159
124	162.114	54.9867
124.2	159.885	52.1977
124.4	159.209	50.5375
124.6	157.356	49.4107
124.8	155.003	47.6055
125	153.174	44.8197
125.2	152.949	45.4578
125.4	150.912	43.3417
125.6	150.313	42.4446
125.8	148.569	39.9558
126	145.621	37.1536
126.2	143.884	36.2536
126.4	143.811	34.7595
126.6	141.912	33.3897
126.8	139.472	32.1401
127	138.179	29.4475
127.2	137.336	27.8949
127.4	134.792	25.9775
127.6	133.813	25.1885
127.8	133.145	22.69
128	131.476	20.6194
128.2	129.594	19.2204
128.4	127.459	19.0784
128.6	125.753	15.9082
128.8	125.179	15.1632
129	122.034	12.7777
129.2	122.072	11.4348
129.4	120.209	9.72323
129.6	119.327	8.37372
129.8	118.374	7.70137
130	115.256	5.46029
130.2	114.022	2.74687
130.4	112.273	1.82511
130.6	112.041	0.667251
130.8	110.964	-0.667849
131	110.356	-1.58585
131.2	106.833	-3.95458
131.4	104.71	-5.11913
131.6	102.789	-8.02649
131.8	101.971	-9.19892
132	102.163	-10.3905
132.2	99.6386	-11.3438
132.4	98.6275	-13.756
132.6	95.8732	-15.723
132.8	95.8159	-17.0689
133	93.6023	-17.1214
133.2	92.4012	-19.52
133.4	89.7633	-21.8774
133.6	89.4321	-23.146
133.8	88.1856	-24.6017
134	84.6013	-26.4129
134.2	85.2571	-27.4516
134.4	83.8179	-28.8234
134.6	80.9652	-32.4694
134.8	81.4362	-33.5117
135	79.4043	-32.5586
135.2	78.9036	-35.3108
135.4	75.6731	-37.8376
135.6	75.1919	-37.5347
135.8	72.8239	-39.8381
136	71.2872	-42.9098
136.2	71.95	-43.3118
136.4	68.5149	-45.4341
136.6	65.6395	-46.8196
136.8	65.3727	-47.6767
137	63.4635	-51.0576
137.2	62.8876	-51.5209
137.4	61.9323	-52.3061
137.6	59.5308	-54.4999
137.8	58.2297	-57.2728
138	56.9771	-58.1463
138.2	55.732	-57.8931
138.4	53.6182	-60.4997
138.6	53.7335	-61.7844
138.8	51.1157	-63.4842
139	48.9234	-66.1628
139.2	47.1704	-66.134
139.4	46.2815	-69.0746
139.6	45.0946	-70.6891
139.8	43.6161	-70.6475
140	43.1304	-72.4299
140.2	41.1747	-74.1527
140.4	38.4366	-77.0238
140.6	36.8012	-77.4372
140.8	37.9062	-77.7852
141	35.3068	-79.2753
141.2	32.5381	-83.1772
141.4	30.9979	-84.8316
141.6	30.7547	-84.366
141.8	30.4299	-86.1316
142	27.5946	-87.5194
142.2	26.9647	-89.2343
142.4	24.9279	-92.6184
142.6	24.0809	-91.6686
142.8	21.2144	-94.8957
143	20.2243	-96.1488
143.2	22.674	-96.0172
143.4	16.5399	-99.9923
143.6	16.1219	-100.012
143.8	22.5299	-102.297
144	13.7876	-103.352
144.2	12.584	-105.096
144.4	9.92946	-106.876
144.6	8.11966	-108.124
144.8	8.5272	-108.671
145	5.36184	-111.557
145.2	4.25666	-112.254
145.4	1.77732	-115.545
145.6	3.49347	-115.279
145.8	-1.74679	-119.867
146	-1.30069	-119.987
146.2	-2.35612	-121.396
146.4	-3.66999	-121.738
146.6	-3.46791	-122.896
146.8	-5.99195	-125.36
147	-10.026	-127.705
147.2	-8.93426	-129.317
147.4	-9.60965	-130.453
147.6	-13.2233	-131.557
147.8	-13.3852	-132.951
148	-15.9781	-135.575
148.2	-16.3332	-137.109
148.4	-20.1939	-139.68
148.6	-18.4094	-138.741
148.8	-21.7195	-142.712
149	-22.8932	-142.386
149.2	-24.6382	-144.888
149.4	-26.2974	-147.015
149.6	-26.3332	-148.096
149.8	-28.9431	-150.616
150	-30.197	-150.863
150.2	-30.6804	-152.249
150.4	-32.139	-155.131
150.6	-33.6136	-156.313
150.8	-34.1261	-157.774
151	-37.6273	-160.31
151.2	-36.9872	-161.08
151.4	-37.6269	-163.359
151.6	-41.3731	-164.758
151.8	-42.6126	-167.532
152	-44.1182	-168.57
152.2	-44.7264	-169.814
152.4	-47.0407	-172.348
152.6	-48.5032	-173.675
152.8	-50.7646	-175.043
153	-50.7208	-176.07
153.2	-53.3804	-179.083
153.4	-52.8074	-179.899
153.6	-54.6406	178.219
153.8	-56.0559	175.88
154	-58.0622	172.461
154.2	-59.3849	173.067
154.4	-62.4753	169.849
154.6	-64.4185	167.336
154.8	-66.1643	166.326
155	-68.4825	163.829
155.2	-67.3465	162.799
155.4	-70.1161	159.518
155.6	-70.292	158.241
155.8	-71.3284	157.708
156	-74.83	154.475
156.2	-73.959	152.406
156.4	-76.7126	151.117
156.6	-77.3475	149.439
156.8	-81.277	146.631
157	-82.061	145.384
157.2	-81.847	144.377
157.4	-84.3565	140.645
157.6	-85.7664	137.741
157.8	-88.1275	136.704
158	-89.1518	136.13
158.2	-88.0764	133.572
158.4	-94.1372	131.034
158.6	-95.39	128.601
158.8	-97.2382	126.73
159	-98.7021	124.198
159.2	-98.0469	124.538
159.4	-102.296	120
159.6	-103.591	117.173
159.8	-104.696	117.944
160	-106.014	115.807
160.2	-107.966	113.842
160.4	-111.608	110.325
160.6	-112.091	106.865
160.8	-112.003	106.081
161	-113.412	103.671
161.2	-118.942	101.632
161.4	-119.133	98.9702
161.6	-120.442	97.1655
161.8	-121.445	94.7848
162	-122.563	93.9084
162.2	-125.947	91.3809
162.4	-129.239	89.2252
162.6	-131.331	86.6875
162.8	-133.714	84.6929
163	-133.18	82.7184
163.2	-136.539	82.5929
163.4	-137.534	78.2034
163.6	-137.098	76.8753
163.8	-141.495	75.846
164	-139.969	73.7327
164.2	-144.331	71.2926
164.4	-147.579	69.6663
164.6	-148.988	67.4836
164.8	-151.031	65.8324
165	-152.017	63.7305
165.2	-154.719	61.1299
165.4	-155.081	60.2873
165.6	-155.319	58.2633
165.8	-158.23	56.0721
166	-157.863	54.5412
166.2	-159.538	52.2274
166.4	-162.856	49.8409
166.6	-165.005	48.3614
166.8	-164.588	47.9253
167	-165.993	43.5274
167.2	-167.223	44.6568
167.4	-170.964	39.3118
167.6	-168.948	40.8096
167.8	-174.428	37.9846
168	-174	37.6152
168.2	-177.456	33.9669
168.4	-174.192	33.4884
168.6	179.914	30.5187
168.8	176.829	30.9799
169	-176.93	29.0085
169.2	174.602	24.5417
169.4	177.837	24.7867
169.6	178.582	22.913
169.8	176.113	24.6791
170	176.52	20.941
170.2	171.45	17.2783
170.4	178.025	17.7239
170.6	171.97	15.541
170.8	173.331	15.8173
171	170.069	13.9277
171.2	168.823	9.37348
171.4	166.127	9.44189
171.6	162.556	7.18977
171.8	166.124	5.86057
172	160.05	3.06856
172.2	164.077	4.84727
172.4	170.886	5.00869
172.6	161.461	1.7372
172.8	161.702	0.908217
173	159.259	-1.1788
173.2	160.592	-3.31742
173.4	153.812	-3.65749
173.6	154.309	-6.67531
173.8	157.341	-7.8759
174	155.007	-7.00386
174.2	155.152	-11.8224
174.4	153.289	-9.22368
174.6	156.714	-14.0219
174.8	153.267	-10.8723
175	155.419	-15.0956
175.2	152.395	-15.0233
175.4	150.131	-16.2218
175.6	155.871	-14.5822
175.8	147.479	-17.4048
176	146.331	-20.7651
176.2	150.378	-20.2111
176.4	147.327	-23.3251
176.6	152.881	-24.306
176.8	151.459	-25.5808
177	148.642	-26.678
177.2	146.946	-29.1052
177.4	147.655	-29.2264
177.6	143.649	-28.6176
177.8	150.865	-28.0966
178	144.866	-30.6533
178.2	146.923	-32.5159
178.4	152.022	-31.1862
178.6	142.13	-32.1997
178.8	150.399	-37.0424
179	131.622	-38.6181
179.2	127.38	-36.0333
179.4	134.624	-36.1278
179.6	126.708	-42.3204
179.8	138.939	-40.2517
180	143.592	-40.6307
180.2	133.935	-44.5754
180.4	143.962	-39.6905
180.6	139.245	-43.1676
180.8	124.665	-48.2254
181	126.137	-50.365
181.2	123.823	-48.4285
181.4	132.468	-45.8304
181.6	130.27	-52.7063
181.8	136.463	-52.3206
182	137.401	-46.7389
182.2	128.828	-55.0365
182.4	129.31	-51.6171
182.6	146.198	-46.1715
182.8	123.696	-51.811
183	137.133	-50.0389
183.2	124.086	-53.1437
183.4	133.062	-56.0239
183.6	137.03	-56.3402
183.8	125.265	-56.4421
184	113.967	-58.9527
184.2	128.729	-58.3061
184.4	114.497	-65.4025
184.6	126.314	-61.0714
184.8	124.603	-65.7378
185	125.207	-64.2374
185.2	125.495	-67.2707
185.4	120.526	-66.0007
185.6	112.173	-65.0379
185.8	117.987	-61.4492
186	133.716	-61.9066
186.2	127.535	-68.5907
186.4	113.961	-67.7392
186.6	118.437	-68.9923
186.8	116.847	-71.3686
187	107.819	-68.0591
187.2	127.33	-61.1244
187.4	111.3	-62.6854
187.6	107.794	-76.7591
187.8	108.38	-75.5774
188	117.456	-67.5702
188.2	116.009	-81.3963
188.4	110.909	-75.5288
188.6	115.858	-63.5534
188.8	129.144	-77.5372
189	107.858	-86.167
189.2	111.303	-76.3728
189.4	107.943	-78.1642
189.6	111.614	-72.9343
189.8	114.774	-78.9516
190	118.626	-73.2008
190.2	109.765	-75.7849
190.4	93.0804	-73.451
190.6	114.743	-88.0136
190.8	97.0477	-82.09
191	105.216	-87.8869
191.2	110.233	-91.8976
191.4	105.852	-84.086
191.6	117.027	-76.2124
191.8	115.797	-84.3281
192	118.891	-88.1181
192.2	113.484	-86.3644
192.4	109.159	-97.965
192.6	98.871	-85.0235
192.8	100.996	-83.9452
193	97.3701	-77.4067
193.2	89.1969	-83.9756
193.4	103.535	-85.888
193.6	110.6	-84.0282
193.8	106.679	-77.9883
194	115.057	-83.0271
194.2	100.802	-84.3759
194.4	84.6629	-97.9191
194.6	95.1752	-98.235
194.8	99.5899	-94.5051
195	91.7969	-106.589
195.2	98.8058	-84.9913
195.4	90.8091	-97.2575
195.6	73.5996	-94.0044
195.8	94.785	-85.7658
196	89.7521	-83.08
196.2	64.344	-83.1191
196.4	108.408	-87.7499
196.6	80.5781	-77.8085
196.8	73.5654	-94.268
197	102.949	-83.5818
197.2	69.9564	-70.175
197.4	88.8914	-99.0344
197.6	111.781	-85.2742
197.8	54.5025	-87.0071
198	84.8687	-109.739
198.2	98.3002	-109.938
198.4	46.7347	-98.2074
198.6	85.6411	-94.7461
198.8	80.7204	-99.6263
199	99.7881	-116.683
199.2	77.222	-100.435
199.4	67.8731	-73.3952
199.6	88.5088	-92.2303
199.8	92.9405	-104.107
200	74.2809	-103.274
200.2	66.4162	-100.997
200.4	66.0921	-86.3359
200.6	90.6095	-100.999
200.8	48.2289	-118.232
201	106.069	-109.156
201.2	70.0755	-91.6719
201.4	88.3693	-117.23
201.6	102.852	169.75
201.8	56.6687	-109.292
202	94.7679	-83.5463
202.2	71.1911	-109.439
202.4	85.7314	-61.7227
202.6	103.779	-93.7311
202.8	74.389	-60.7636
203	90.1674	-97.5019
203.2	101.239	-135.262
203.4	84.4001	-104.354
203.6	48.227	-91.8552
203.8	87.0569	-72.2361
204	91.7176	-64.83
204.2	77.5485	-68.9346
204.4	75.7623	-76.8282
204.6	81.1853	-118.806
204.8	25.7004	-80.6462
205	58.1828	-106.187
205.2	33.2728	-79.7285
205.4	21.8384	-113.006
205.6	37.7204	-117.994
205.8	109.442	-99.6284
206	72.9051	-95.1225
206.2	69.5232	-115.154
206.4	48.2777	-80.514
206.6	62.4604	-79.1011
206.8	60.9542	-127.229
207	68.6666	-93.5204
207.2	54.0468	-86.3309
207.4	41.6034	-117.672
207.6	63.5221	-111.933
207.8	51.4662	-129.262
208	58.6891	-124.04
208.2	91.0191	-82.6835
208.4	67.884	-73.3384
208.6	47.6491	-157.467
208.8	18.3529	-31.8512
209	109.316	-114.861
209.2	70.6896	-111.523
209.4	14.8881	-117.162
209.6	46.9752	-142.814
209.8	83.7148	-124.446
210	26.4935	-77.5994
210.2	80.3464	-92.2028
210.4	39.4579	-144.376
210.6	125.934	-95.8873
210.8	71.809	-120.432
211	36.9248	-140.609
211.2	80.8915	-75.7711
211.4	77.7009	-128.628
211.6	63.1695	-90.1087
211.8	84.6175	-123.31
212	87.6211	-107.166
212.2	-17.3967	-109.133
212.4	76.5654	-143.727
212.6	-7.34114	-90.177
212.8	52.6225	-110.847
213	21.8906	-155.809
213.2	23.6698	-118.108
213.4	86.006	-70.4375
213.6	66.2537	-112.189
213.8	63.2928	-153.281
214	59.8896	-66.4801
214.2	16.1203	-144.086
214.4	19.5382	-141.984
214.6	43.5584	-92.399
214.8	87.4116	-108.142
215	25.2404	-110.343
215.2	-1.70061	-78.1946
215.4	92.717	-150.837
215.6	21.1633	-95.103
215.8	57.5776	-61.3206
216	39.0144	158.716
216.2	48.2919	-62.7218
216.4	21.5637	-73.2124
216.6	20.8246	-155.468
216.8	61.1128	-132.844
217	130.409	-139.403
217.2	-30.0342	-110.071
217.4	54.4947	-117.452
217.6	52.2176	-39.1465
217.8	83.1654	-52.1709
218	7.05472	7.77006
218.2	25.3271	177.945
218.4	50.8394	-129.77
218.6	-4.26429	157.843
218.8	56.269	-73.8171
219	61.3533	-83.6929
219.2	24.1546	179.203
219.4	25.3053	-120.345
219.6	41.6381	-107.286
219.8	56.0739	-57.1361
220	50.1324	-119.767
220.2	-10.659	178.025
220.4	61.6252	-95.379
220.6	-11.8859	-31.8834
220.8	47.1432	-79.9428
221	174.737	-154.271
221.2	64.1321	-113.148
221.4	41.072	-146.793
221.6	31.0837	-104.404
221.8	143.578	156.747
222	75.7409	-143.13
222.2	109.175	-132.59
222.4	67.991	-41.6431
222.6	152.062	-132.996
222.8	50.5859	-119.149
223	29.1585	-146.232
223.2	14.5163	-35.355
223.4	45.4851	-110.521
223.6	28.9458	-41.0677
223.8	50.5035	-168.862
224	31.3583	-73.5337
224.2	-36.8581	-128.582
224.4	73.6345	-74.5255
224.6	43.6427	-112.698
224.8	126.02	176.403
225	78.2151	-127.628
225.2	100.945	-153.802
225.4	4.64146	-81.9237
225.6	55.3423	116.602
225.8	-26.8284	131.384
226	49.5137	-52.2979
226.2	10.12	-91.3644
226.4	101.501	-125.684
226.6	-25.3287	13.823
226.8	34.5029	179.8
227	80.6567	-126.637
227.2	58.3021	27.6878
227.4	51.088	-41.0448
227.6	-22.5652	77.4713
227.8	110.133	-140.621
228	37.0322	-157.638
228.2	-170.436	154.047
228.4	28.3216	-117.935
228.6	36.0029	-109.682
228.8	17.9169	-126.609
229	55.6954	-125.627
229.2	65.0396	-142.548
229.4	80.607	-132.14
229.6	-53.2484	-60.4028
229.8	21.6777	-98.8227
230	94.4091	-82.6417
230.2	57.0524	169.683
230.4	44.647	-113.434
230.6	36.6009	-143.611
230.8	82.5248	-67.8774
231	21.7018	-177.655
