!Keysight Technologies N9923A: A.08.18
!Date: Thursday, 04 February 2021 21:42:43
!Timezone: (GMT-04:00) Georgetown, La Paz, Manaus, San Juan
!Model: N9923A
!Serial: MY52411941
!GPS Latitude: 
!GPS Longitude: 
!GPS TimeStamp: 0001-01-01 00:00:00Z
!GPS Seconds Since Last Read: 0
!CHECKSUM:0021435010
!Correction: S11(ON U)S21(ON U)S12(ON U)S22(ON U)
!S2P File: Measurements:S11,S21,S12,S22:
# Hz S DB R 50
50000000	-17.3461014075971	20.4290557858572	-0.726417574807283	-9.59471559720687	-0.84384604343648	-10.7285095358542	-26.8070818315257	-37.0315936692914	
50200000	-20.4552474780903	19.2714492607322	-0.933368536800351	-7.00412559768467	-0.589378636754574	-6.63640880195717	-20.3837307195496	27.9118932198983	
50400000	-26.3656213639757	-10.6374162213346	-0.361444610686411	-9.23912617753042	-0.835846355228312	-7.43104630837387	-23.5259092878918	13.5540028650852	
50600000	-21.9174440552905	-4.03487074056787	-0.623540398405382	-10.0415184258012	-0.723748976165217	-9.07261398616605	-22.9247808984456	5.71703572394877	
50800000	-22.1258784437617	-25.0789881524124	-0.636559426858788	-8.03334045463657	-0.932039841149846	-8.79377370478795	-19.5967088783483	3.27540188861032	
51000000	-18.2690382947693	0.70391239395578	-0.636993984963695	-8.42463499107313	-0.343295193884574	-9.71230214732507	-21.6614873380816	28.6639534998984	
51200000	-23.4304085128538	4.4475650316893	-0.544183288218079	-8.99428720050856	-0.730144587603152	-5.55490417726366	-17.4411417583719	6.37445852294288	
51400000	-29.174021871357	5.16196448081719	-0.480449650265516	-10.6163333197935	-1.16155705342002	-8.90104943787759	-17.8107896673909	0.363761831113291	
51600000	-23.5671212280571	0.469849353795605	-0.924729928552473	-7.65110010956144	-0.778215747720088	-8.73222621281698	-24.7828587414098	1.34081315594677	
51800000	-32.1156702817659	33.2328766034907	-0.791925724436958	-9.5408441008272	-0.804104322929764	-11.0442342284537	-19.0537164316569	-7.74742070623119	
52000000	-22.5549169511062	46.9333349086222	-0.787620155293732	-6.2321351621965	-0.12877033743766	-10.0691746598696	-18.6699797383571	4.36517878858063	
52200000	-24.0719912681497	-27.6186639817893	-0.817921163266968	-9.48065155267451	-0.970344259014454	-9.08476711168507	-18.600239603078	30.8516692350537	
52400000	-19.6881247044373	-19.8966615636161	-0.662791749281516	-9.47383528484609	-0.827139071220414	-8.12731344427739	-20.3434165658774	27.6447773646279	
52600000	-28.882838282441	-9.16185352816434	-0.712756976280071	-7.61678767025278	-0.96898293630206	-7.5793330023873	-20.3958882452528	17.3545060612491	
52800000	-25.0608953858391	55.345294352134	-0.736130770403342	-9.21987459508697	-0.531772293187841	-10.4168673231605	-20.4654624290392	8.00474102646578	
53000000	-21.1494652338427	-27.2690440882689	-0.758493955644877	-12.1698650264046	-0.983334166332682	-7.05066858204662	-24.9045058160381	9.77800550731642	
53200000	-24.945585842961	-19.4283314112131	-0.710260345638099	-9.79382488441067	-0.964812435145688	-9.31063663490179	-20.9789139526962	3.09862099892145	
53400000	-23.9854227756429	-1.12697261914946	-0.859761673009088	-8.02136358851222	-0.868247149492991	-12.8514080353403	-21.5407546630552	2.45270170084912	
53600000	-22.8958756881656	-38.9802109267615	-1.13748467966951	-10.3648720239091	-0.588190994229798	-8.2693855845894	-19.7038004437305	34.3761035556	
53800000	-24.312650763085	-13.5967014083981	-0.606219159836887	-5.99122773596773	-0.916813768314319	-10.4811548041124	-20.7552398346663	11.9375452237966	
54000000	-19.2048280460791	3.1824033407185	-0.802683300648119	-9.1224527316421	-0.426848181216826	-8.49888424924301	-20.0006284791227	1.87423939887308	
54200000	-23.1259993082521	7.55264578653013	-0.848730617702659	-10.1100053027053	-0.619242371802863	-9.48767405857046	-20.1057573862587	12.7659909346729	
54400000	-22.2563971527902	10.6098361340726	-0.927784196155873	-7.45175329944144	-0.423827752418565	-10.6695596696532	-18.3935238362006	-11.7995008630808	
54600000	-20.7958088932967	-32.8819145772456	-0.678173435405925	-7.33811408925254	-0.953268935206294	-10.283397802479	-22.1482591760855	45.7693971697602	
54800000	-25.2884256952624	21.3602531712141	-0.565892920178236	-9.73384674830062	-1.08079853064813	-8.02991376843454	-21.8266423605507	22.1249896827436	
55000000	-27.5243392591002	-45.0064152525369	-0.717140060065557	-10.4402517071655	-0.552002600579561	-9.21761395066816	-17.97549882737	7.36304658380896	
55200000	-23.263058685149	-13.7421429257998	-0.616617547687326	-6.88925181665199	-0.697673112714785	-8.18807522597672	-21.3759349375972	19.8614874533271	
55400000	-26.8509155495188	26.8142212774793	-0.815876462806599	-9.93705966371707	-0.326619922841136	-9.36673993310464	-19.9081579872998	14.5238033504882	
55600000	-19.0902274594752	3.06281610251716	-0.877832647678449	-10.1842956722116	-0.896118298005948	-9.84742411884853	-23.1512032199725	23.7398843505524	
55800000	-19.79705252369	-4.83131566782994	-0.562678204298284	-7.79044377216093	-0.867978100356301	-10.7036222569434	-18.8681741722498	-5.88836892229021	
56000000	-20.1795810605215	-4.96101303120971	-0.923849950477469	-10.6376922952007	-0.8959984482862	-12.107979139778	-21.1690225529266	-0.806209616882431	
56200000	-23.1902567950465	-4.2664102336842	-0.933393900570273	-7.97845580431886	-1.01509611004524	-8.19575242090188	-20.6226734165797	-3.60319746221772	
56400000	-21.6370967389599	11.2310328143156	-0.731611990194657	-10.392463804008	-0.407851331186629	-10.6920428077636	-23.8860203763766	15.5409100315177	
56600000	-19.268484259174	9.30845595077164	-0.860367362875644	-9.38913349164629	-0.799049315915793	-12.3366048068673	-23.0907773670569	-1.14970272284349	
56800000	-23.9362254479533	13.507452239964	-0.662235672286302	-9.73826797853477	-0.571402364765033	-10.2581336809477	-23.3318291551788	-7.37469722052013	
57000000	-18.0801042813053	9.57959692676977	-0.872798160045737	-8.35220970207239	-1.0726737198369	-11.0760833339256	-20.1476698378804	5.78172616896698	
57200000	-25.6213045698132	-36.9605611776495	-0.839191807728551	-7.28726443310165	-0.741192906219484	-10.665778766197	-19.9047074124918	-8.36357225397774	
57400000	-20.5673870988283	24.6406782516698	-0.818152528873033	-8.45753778582994	-0.824324280599586	-10.651688617064	-21.4345240327274	-13.1755292338598	
57600000	-20.9733574107126	-17.594976955476	-0.770749521087597	-11.0690388882453	-0.998522122185788	-10.2073484965579	-24.96884193847	37.221384011035	
57800000	-18.5926665825259	15.8671368725489	-0.692480070461607	-11.1268104214165	-0.636186911924559	-9.94832225113261	-26.9049464076214	-42.4496739235491	
58000000	-22.1299979226912	-14.4880564071741	-0.495674703804785	-10.118828787937	-0.646109086386479	-8.37620839979127	-16.9906273719384	40.8873570964769	
58200000	-21.2833881904199	28.936966581909	-0.77041368020614	-10.349488411562	-0.894258960393103	-10.204826762294	-27.9818962230475	-55.2895953869283	
58400000	-21.623824390544	23.8565361802118	-0.731366691149991	-11.2761583102613	-0.390962064317405	-10.8873106711033	-19.6792142235069	3.11630168381915	
58600000	-19.7302987059956	12.3662636778927	-0.812219571574445	-8.26023222261777	-0.759684217508664	-11.2302829622471	-30.9885037294648	-25.698960860174	
58800000	-24.4011036922554	-11.3559562505421	-0.670920877193456	-10.0939409033699	-0.93980766048853	-8.11816474897674	-20.4174923966895	-5.88955269260596	
59000000	-21.6688956051496	7.54168779654574	-1.2492798427722	-11.6772384923633	-0.553173369934269	-10.3874989639466	-23.3297503021996	17.3037446093929	
59200000	-21.5549060091133	-12.5085510945351	-0.796950310517603	-11.1802790259486	-0.81559313348183	-11.4238133876937	-20.9137602146832	17.1767674540112	
59400000	-23.2818156457673	41.5184420289359	-0.669377765290788	-10.061571536443	-0.841894010710875	-11.2192644407017	-16.3690694259736	-10.3213374395455	
59600000	-19.913492006159	25.8709352454345	-0.799757649773406	-10.6249412320487	-0.603082252405456	-10.7751652502333	-23.8079077115281	-7.0742503566949	
59800000	-18.5894948108865	-3.28040518028502	-0.460675982372681	-11.8517432686956	-1.09527598705717	-10.2825691570111	-22.438831486082	7.29860750386424	
60000000	-17.961595603272	-0.789958835973163	-0.747191732463794	-7.84233222029499	-0.742283069210266	-10.2280571656186	-20.0458811910541	13.1231822679862	
60200000	-20.7556365216314	-3.10159268881647	-0.893055960424329	-9.86479673204913	-0.508204768821593	-13.1389759745178	-18.4583083775553	27.8567458690591	
60400000	-21.9684328617824	-0.736594755397694	-0.930423704840443	-10.7251083894081	-0.706195271344572	-9.53171312378271	-18.3205738689067	20.6765692627896	
60600000	-19.7614272797577	-16.4897457163849	-0.621238501030167	-9.09114523371077	-0.578093961303547	-10.6230937331735	-21.3953986842935	18.5836367807303	
60800000	-20.8165238738926	13.3420961488716	-0.759160593680571	-12.7798648349586	-0.614423854207451	-11.3662575489199	-18.3984236082938	15.7230574829823	
61000000	-21.9952598991729	17.0827219054432	-0.69865786712185	-7.64538530920592	-0.767962263702593	-13.3336677298488	-22.151314576447	21.1483918199644	
61200000	-22.6920574554714	22.7522511788973	-0.959058540068964	-12.4797351538487	-0.918393251913432	-9.27045783318181	-17.5734836635684	6.90750821435726	
61400000	-21.4258019333286	-28.0524045238895	-0.93448434663242	-8.53050522173583	-0.515045549923029	-10.988647029274	-24.6680259616482	14.6800920233907	
61600000	-18.1994854820321	3.84431784726279	-0.975158146775269	-9.94118048054412	-0.849347943341043	-12.2782646414171	-23.3961779450339	5.92514271627626	
61800000	-21.6679930130939	10.6172993841809	-0.536122556244274	-9.14029037395868	-0.630981210487918	-10.1290898999008	-18.2962837539943	-1.68661148155685	
62000000	-21.0338666834702	-22.3374089792446	-1.09307905891849	-10.555574759295	-0.49947168586738	-9.21247853165752	-19.4112465095747	5.29200162493867	
62200000	-23.8516939640898	27.0858632072705	-0.595248462884137	-9.16757413932576	-0.886170563233036	-11.2795500965894	-22.3066008512951	21.4885028780946	
62400000	-17.9269192992367	10.9665288507563	-0.397574844642094	-10.3881711758886	-1.00039763210479	-12.8391515333674	-22.0605837515524	39.6343089069099	
62600000	-17.6926993311775	-6.97069592389966	-0.897671000894321	-11.0457591742577	-0.999717986828316	-11.6257989702016	-22.8632959773075	26.4662881249267	
62800000	-21.6077333937958	-17.6793328802834	-1.03346690923176	-12.1634591195863	-0.524334102019586	-10.5412297893087	-18.569769961288	22.7921317464611	
63000000	-19.6876423456417	-6.81409939606694	-0.5933426665582	-10.3750213120746	-0.548418245291693	-11.2930621944998	-22.0183206215135	36.3498420286947	
63200000	-27.2040020197103	41.5677351522141	-0.701053545436605	-13.1885219085982	-0.698060784750943	-9.75713100473376	-22.1404633793978	3.89463001075186	
63400000	-18.8756159250828	12.2059940475056	-1.31193272641064	-9.23674246952112	-0.519363469988252	-11.9358338992178	-21.7310533159355	23.3381669539111	
63600000	-21.4848705447343	-6.87433158474386	-0.623939921982864	-10.615996901441	-0.740459864523848	-11.0764319110441	-19.5494470140498	52.0384832657013	
63800000	-16.9349996641352	-6.05926989660898	-0.760383076106907	-12.1424464629383	-0.984625160736546	-11.1149789915562	-23.339663429291	-6.51858710606336	
64000000	-16.3843305574572	0.541102801666582	-0.463903581393092	-10.0478061212778	-0.589020611148572	-10.7432917972654	-27.1510986304475	36.8855006986315	
64200000	-20.6854897074386	7.72536500991267	-0.838495162072398	-11.3454974952798	-0.617500622381414	-11.7226404178211	-18.0316015098721	40.6458443214604	
64400000	-18.8834243879243	13.1896264990362	-0.782268812810618	-10.3432677862435	-0.811820299604102	-10.1459510923972	-24.2403628239416	21.3904472983986	
64600000	-17.0483807607601	0.51153155919983	-0.910350273560062	-10.3600701824713	-0.896142313851569	-9.30081465200495	-24.0073166314136	42.1661622676106	
64800000	-21.3304032782662	27.3732807580726	-0.759565055526303	-11.344068479247	-0.793545271345516	-11.3033784998983	-18.7067512052355	-10.3292126505168	
65000000	-20.9759025973503	14.1606604174379	-1.081315198225	-13.3944511605985	-0.594712240391235	-12.0452125214188	-20.9304728727723	15.7343821354473	
65200000	-18.4480625867012	35.149829890911	-0.498994470707904	-13.2623041979049	-0.529629015668293	-12.9407908857823	-22.1397731801643	5.17680432196608	
65400000	-21.5832423070044	8.94028761404898	-1.10959174739297	-11.1938736851865	-0.521235306951231	-11.5428710751157	-17.3433417126587	22.5110746406604	
65600000	-22.3869576577095	28.7330702966053	-0.356201124251176	-12.5776713906056	-0.653934650362276	-12.241731917137	-20.4106558083056	9.91306410778903	
65800000	-19.7476495995564	22.8866121123483	-0.975415017258114	-9.51662178473705	-0.822829477064566	-11.0117161272244	-20.4599250886195	-2.45861793548502	
66000000	-23.7724131361967	-7.58302722738325	-0.860065218463955	-11.1034603171968	-0.649026063469526	-10.9644991983306	-18.9395870857133	5.87231028897591	
66200000	-17.7956365719593	4.63512743232107	-0.642801263840482	-11.5108436982709	-1.03624931577496	-14.2679148174485	-26.3487739130079	24.9477707332276	
66400000	-19.3027309577416	3.75025564838557	-0.930025522582349	-12.8477252563991	-1.12704760726231	-12.8553904132204	-21.2373042862513	39.3416968647161	
66600000	-20.278781828811	-8.94508830374667	-1.09968072781373	-13.0118308327932	-0.634299704182078	-10.7636719754534	-17.9830514410236	29.1918157994819	
66800000	-17.3409253389907	1.70427617465313	-0.764487876774488	-11.4915694687434	-0.74841701829616	-10.5029064117201	-22.5530143908571	5.00810888084616	
67000000	-19.6705083895067	-22.613364340074	-0.700696816312219	-12.0255809866297	-0.953016133374536	-9.99339658419494	-19.6837295406892	46.9157984120987	
67200000	-19.2827242860346	2.63678735845586	-0.898240749746729	-11.3721859653329	-0.709600192811066	-12.9918841541176	-26.728903213345	7.22145555921007	
67400000	-19.9159990886366	16.6518770461195	-1.02391610663802	-11.0652275920927	-0.668625296814705	-12.4947044472066	-18.7827510595004	18.3024668562536	
67600000	-22.8841353503936	-17.8589749784329	-0.69713180393731	-12.8418543183714	-1.08185577303182	-12.4553884080779	-17.3590965920442	9.05309020453485	
67800000	-18.508062557465	36.3929980479523	-0.96516693212896	-12.1137435097054	-0.795679218254011	-10.0424190883365	-19.365920381118	1.73787636687231	
68000000	-19.5508934884041	4.85179881732793	-0.747415798751992	-13.0244027815407	-0.507222162941185	-13.3021291284413	-20.435504739592	45.4343453596185	
68200000	-21.2533515117017	21.3236988095974	-1.00653176725681	-12.2650697362557	-0.708573430839901	-10.826582488328	-18.4824552657925	26.1650021470827	
68400000	-18.495288251302	11.6357463080615	-0.892485954508684	-10.5048879474899	-0.757938753265502	-12.6360441160326	-18.9739514174241	-16.933805243067	
68600000	-21.1511820960981	-4.81428369117775	-0.83514821876149	-12.6768963303049	-0.585838763240146	-11.3162426693969	-22.6687947368661	11.3219434037511	
68800000	-18.1634504901677	19.0002635911625	-0.888871706044095	-12.0343487500389	-1.05199336381367	-10.5658222334031	-20.9633206205456	22.7801418432703	
69000000	-19.7837586696903	-9.28077410399704	-0.452089664863794	-12.3202898554242	-0.684081992439484	-11.3765698414507	-24.090910300895	32.5807451830145	
69200000	-19.1021022553099	-1.95125131202669	-0.694828614983732	-12.5088893954024	-0.7673325057735	-11.8710549006118	-20.5672444851162	14.1089187833773	
69400000	-17.4419252305675	30.8044696126238	-0.978301112653412	-11.364122618667	-0.841995969513606	-12.4702796658246	-19.290310570959	-4.3358554331175	
69600000	-21.1682091846112	7.59663388990307	-0.8114524760863	-10.2174921912465	-0.602331924887863	-13.3742104257016	-16.8729307717857	-2.99248523945118	
69800000	-20.6056767116154	-3.87778348792027	-0.902933456312757	-12.9532089070715	-0.938902411574179	-12.0688464249984	-17.8617245140474	27.3059853460336	
70000000	-19.6906041469261	-0.0599730765219573	-0.640754200571509	-10.8167153204543	-0.63946593734132	-13.1232546127056	-22.9177916108309	16.1970551392868	
70200000	-27.8493712346367	-5.71594715924354	-0.98396711728281	-10.9889473393096	-0.652362863462579	-13.6531388599223	-17.2185976884956	22.7714906108251	
70400000	-21.3692362533896	10.8445677307308	-0.574076890966098	-11.4370725641098	-0.875384156857671	-13.8607277640374	-21.0516778742816	5.35951839918168	
70600000	-18.7317763665226	16.5779096085202	-1.01095981630383	-11.5172757418765	-0.800443776577136	-10.9625405990452	-23.346881947334	3.3431705186674	
70800000	-19.5280066130084	2.21347519601242	-0.734161663651289	-11.2253151893597	-0.397355248321571	-12.8317161684151	-19.8202910776562	-3.22823513734185	
71000000	-20.8104481109422	-9.6923243169685	-0.978558412833611	-11.5950087898215	-1.08230117315429	-12.8054202863032	-19.0055918538046	10.8792701507173	
71200000	-19.3952766443448	9.45122518337215	-0.809167367541301	-11.6449366671735	-0.753493159826465	-14.3705387161575	-22.1945739312672	7.87829402119187	
71400000	-22.4319782754894	-3.6083866792764	-0.735958889749268	-12.977367198339	-0.885431278453274	-13.956044550961	-26.0775763951084	46.6247959241136	
71600000	-32.5481104293691	-2.66091262395044	-0.826798483800628	-13.9361024777519	-0.530910592598414	-11.4196377565582	-20.0690868917579	10.9240772172855	
71800000	-20.6490190749917	0.489600169133958	-1.03688085609029	-13.7158288421027	-0.896002477450683	-12.7368596859866	-18.8075346074868	12.5223336155865	
72000000	-22.8402970701432	13.0543360284527	-0.635607639380057	-15.0964865589241	-0.448708213945535	-12.8284463845979	-18.1106190424344	20.9380985252248	
72200000	-22.9900292672775	9.57677501808401	-0.751541463008937	-14.3562170557146	-0.485450785152933	-14.0385945404957	-17.179507863951	13.6055587459019	
72400000	-18.6570771343782	0.0532862829049076	-0.849176138745684	-11.1830165339968	-0.796707010208291	-13.3191842740683	-23.4922702493104	3.45485846065311	
72600000	-21.5375210992118	-11.434661011971	-0.67194540049233	-12.7927390739044	-0.666879991245431	-12.2048455938589	-19.5731432290319	22.463568012127	
72800000	-18.2960363285665	9.88563085212884	-0.9361554548392	-11.9710374968133	-0.775537919722591	-12.2289752141582	-20.8283160393017	-3.58859792125068	
73000000	-19.2445089522783	-9.76183606049928	-0.883339276738169	-14.034903651783	-0.822110994245155	-13.4411555206234	-20.075379230177	37.0434700092231	
73200000	-24.2031728891686	25.0094375713074	-0.813556840661357	-11.7047977902262	-1.02112769231115	-9.99581769270335	-18.6938602630041	-0.0305073655030927	
73400000	-22.1366807612372	9.48380913697939	-0.556235195978399	-12.4058871229511	-0.657468309418587	-11.2013150188944	-21.8393030987477	24.7595861179117	
73600000	-21.218986984332	-13.0070118839091	-0.801168230462844	-12.7388890240168	-1.04106172972696	-13.5001642195859	-22.4324703634431	5.98776870435231	
73800000	-21.2520601177955	28.3569790725401	-1.02040087184777	-14.5967491949217	-1.04727783011415	-14.3309518778843	-18.6829760823531	11.0138214106377	
74000000	-20.4127862605539	39.3324275575233	-0.901691915970452	-13.1249535585708	-0.801188717814459	-12.9338620622881	-18.083809806096	9.42361257755456	
74200000	-21.9865403584416	30.6635137371274	-1.00191748434253	-11.4982026412652	-0.864011829250408	-13.5423859313078	-18.7753051467103	26.0357043777414	
74400000	-20.0715832444203	9.52085806379367	-0.741685158116381	-11.9873042008808	-0.617738437037002	-12.9614008326595	-18.1447254828504	18.6392033022267	
74600000	-24.9724581341961	14.3554183982189	-0.815025677401598	-13.2586198514035	-0.521494541814595	-12.9237840089363	-20.4327323568207	7.15262367413961	
74800000	-20.9178412591121	0.720508959968334	-0.57170751662541	-12.8346262303609	-0.430963436189426	-13.3619788089394	-24.0240993842826	32.5864398488416	
75000000	-21.792102772288	32.9928496430868	-0.69875699387029	-12.4119068016262	-0.68919039008346	-11.0032503154255	-20.7198342440036	-6.22356953795046	
75200000	-21.7362641578411	-7.849053880194	-0.944936865245211	-13.7315653187733	-0.956979592244254	-13.1162134690452	-19.1626196788836	6.42763732199775	
