!Keysight Technologies N9923A: A.08.18
!Date: Thursday, 04 February 2021 21:40:45
!Timezone: (GMT-04:00) Georgetown, La Paz, Manaus, San Juan
!Model: N9923A
!Serial: MY52411941
!GPS Latitude: 
!GPS Longitude: 
!GPS TimeStamp: 0001-01-01 00:00:00Z
!GPS Seconds Since Last Read: 0
!CHECKSUM:0015601870
!Correction: S11(ON U)S21(ON U)S12(ON U)S22(ON U)
!S2P File: Measurements:S11,S21,S12,S22:
# Hz S DB R 50
50000000	-17.4144082683614	25.7111377485521	-0.745678994523386	-8.35640562781428	-0.912650283238348	-10.0521925055653	-19.3184300090816	-24.8636810867791	
50200000	-19.5760290700386	-7.17262952884535	-0.910200198518954	-7.00774740445387	-0.86234219191199	-7.33674316909704	-25.4122692321028	29.2376512861248	
50400000	-19.3159126360481	-6.73490058503176	-0.807112870429527	-9.45724829676055	-1.02095507362134	-7.2738738546975	-22.3199651192494	9.24960753751152	
50600000	-20.0561918978511	-2.47246756182896	-0.923518010647075	-7.91365343618663	-0.621211961679524	-7.1654471828494	-23.6726960846872	-0.71685131108529	
50800000	-20.8032734608448	-19.8606426572279	-0.593479336824591	-7.5177323857639	-0.811958636021702	-11.9479352204726	-20.3975731202236	22.9014165532105	
51000000	-21.6622992171406	-1.42641073976393	-0.880765913724714	-9.99844036893068	-0.419133097612602	-9.44388689563932	-23.128422004097	25.9767442612385	
51200000	-21.2869499260998	32.7266124434793	-0.404842580234111	-7.75532501529625	-0.921687177816513	-6.89936939268492	-17.9367932809706	1.06154097084297	
51400000	-33.8730629063003	-104.51971050212	-0.445855066498103	-7.37436691740483	-0.833199291664222	-9.84342168682067	-16.8878847531458	-0.17747955212696	
51600000	-23.9910010367269	-26.3395841271138	-1.14332982501511	-5.85813722273097	-0.567842835007613	-6.53807354009617	-25.3479821546476	-7.80121998653563	
51800000	-25.5401722062634	-8.23307043615698	-0.903531016884528	-8.79719753979639	-0.791347997231364	-8.63305036581171	-20.546199611206	3.86765684270427	
52000000	-22.7974493034395	45.6424311837227	-1.08231684998811	-5.26599978778864	-0.623187720969314	-8.74346930319654	-23.984348936136	18.9962014273291	
52200000	-23.1041211827637	15.6669070315472	-0.794299533178966	-8.82181712314399	-1.35422963913241	-10.8533219664459	-17.7922944951617	24.1292191484184	
52400000	-20.6721905534312	-41.6456902749	-0.546428580013024	-9.51255758224839	-0.927470872792198	-8.42173568489769	-23.8222443817797	38.048245395793	
52600000	-26.8321566468961	-5.04568710071399	-0.531820644746981	-9.72935250677122	-0.939967818459495	-8.52280339455861	-18.2489194887629	13.8094643867826	
52800000	-23.7118411159222	18.167245653518	-0.910474821436661	-9.3028018929149	-0.546711419423205	-10.0698161492178	-20.6220523338282	4.20288265841134	
53000000	-19.0698179427362	-16.7455103655645	-0.823312778466467	-10.3730256906179	-0.793206954553288	-7.38834422627212	-20.7878878307468	-22.345832902671	
53200000	-24.5143160781864	20.7877477651566	-0.7786437834586	-9.20305646077608	-0.586035249610111	-10.4631086737165	-20.1114569127466	9.89620520133908	
53400000	-23.7654302886412	-0.896920812391147	-0.723148469844239	-8.2238542106707	-1.30767165788516	-9.23327505947589	-19.7110751898164	4.02958592975688	
53600000	-24.5879324474731	-14.7400361103868	-1.01273057768889	-9.48037121971372	-0.913379980770848	-7.7135705525761	-17.7902072279392	20.3455411989584	
53800000	-23.8850537540063	6.8896473294418	-0.73464630434161	-7.76133257401815	-0.63590245582526	-9.81512864615273	-20.3190299003029	30.6318717443917	
54000000	-23.0464336701729	-12.5164758005692	-0.754247781112429	-10.9418232358427	-0.633815997397653	-7.66736873853513	-20.6892234484905	18.3589551533727	
54200000	-22.8562392474667	-6.63171243681455	-0.427366998364165	-9.20412079810826	-0.630806382919032	-9.4318247971294	-19.6670737212127	11.9020658322094	
54400000	-28.5397304841437	31.8972410881828	-0.878406279529652	-9.78276194407274	-0.451724844472051	-9.25181481939154	-18.8880057000734	15.7312412566604	
54600000	-20.3774332833862	-31.5004867106229	-0.778248617483115	-10.8309870411099	-0.770262683765842	-9.10116999549887	-20.6993432407805	34.5635734012846	
54800000	-22.3425718645885	10.3544348451858	-1.01630610921779	-9.24096441292859	-0.843074190317222	-6.70002297705198	-21.3483262945904	22.1983053051214	
55000000	-27.6956027981659	-29.4462710694233	-0.530486996491663	-9.26831055266235	-0.365762106194539	-8.10145197749444	-18.3668363943547	2.47763947865258	
55200000	-25.0126406318292	36.6823547869972	-0.775394249070723	-9.75648820842492	-0.743840592682072	-8.31079802038057	-19.7429744910577	14.5501090160449	
55400000	-25.0761139437095	-14.0316392531727	-0.751567057574416	-9.07703521120394	-0.744208159417604	-9.2104214481708	-15.4140691692557	19.1801214415104	
55600000	-20.2878965091604	9.27735836297792	-1.00892822460578	-12.2920240785806	-1.00483994126108	-7.7886438895799	-23.1101246754124	28.5895957688832	
55800000	-21.3816188152039	-5.05717186181144	-0.77230067191369	-8.53335353506616	-1.17827601669965	-9.09636742287215	-17.3284300255457	15.3717210320087	
56000000	-18.0962287909024	-11.5078217456577	-0.737174404209638	-10.4613683603952	-0.900026445404348	-9.02580619300244	-24.0390744690876	25.2943244606727	
56200000	-22.5056481785302	17.6871965196333	-0.868432192494481	-9.49690750291076	-0.846372292346715	-8.06938860641968	-19.4974760586967	-8.45658040407029	
56400000	-19.5182326616067	5.61559007398971	-0.950358180435402	-9.62683170872378	-0.591411789200303	-11.8462266845194	-27.8984575047483	27.9437586424194	
56600000	-17.5410772587641	-1.27522481092574	-0.822544280277045	-12.7606498435405	-0.633346593312195	-9.5907733492028	-23.9512169608834	-24.4541428197778	
56800000	-23.6669670762858	-17.5734599364471	-0.578273449332134	-10.3695176445049	-0.667236423855715	-11.3564762370502	-22.2132867939461	-5.62378024140075	
57000000	-20.5178360759528	2.0984758802715	-0.741146866822103	-8.84866110351841	-1.16952985289438	-11.9426145338285	-21.5577376119483	-5.97414595306395	
57200000	-29.2857599595681	-12.2552826897522	-0.841184681917126	-7.90593317660792	-0.557165469802776	-9.30946722269359	-23.9026237517768	-13.1122505936051	
57400000	-22.3511620369383	28.3766928413208	-0.950072028199211	-9.06809607484822	-1.15231652714047	-11.0815586293932	-20.953079922029	-9.84010553918691	
57600000	-18.156135887347	-30.0928429400569	-0.827378037489048	-8.43948881187373	-0.797512577369931	-12.6138845579339	-19.9330330146092	34.2966119110015	
57800000	-18.1113063650179	1.8224509805391	-0.494286796664309	-10.2677157267673	-0.644149039343465	-8.22237826292432	-30.3360581793097	-3.0126092687526	
58000000	-22.4686047848134	-22.9829048262832	-0.750085819498742	-10.6812119993203	-0.45623230957173	-9.53061637876393	-17.1492119023437	26.1315994504617	
58200000	-21.4735267532858	29.2991823179641	-0.412947619309615	-11.438602283923	-0.827808904530494	-10.2388155248182	-24.2304435655453	-30.3840010054947	
58400000	-23.7301808364949	12.0816486293504	-0.963343065748175	-10.7655560430752	-0.7280699380868	-11.872176260918	-19.3045585397667	-5.24261505862385	
58600000	-17.980007558167	-2.17243992374162	-0.842940675254189	-8.06384518506943	-1.08144750349175	-11.5175036469327	-27.9069247682803	-17.8334068071188	
58800000	-21.9997955607934	13.2293971885885	-1.02410934297947	-10.1629942886438	-1.01696646852974	-10.0074696384151	-20.2856047297175	-14.3746470773882	
59000000	-23.1626573848473	-5.95663603285187	-0.900976223134377	-10.9973656962167	-0.533583217934324	-8.81972017994195	-21.8713226349513	25.5836708010735	
59200000	-21.1744261032093	-11.1677899167902	-0.628357924850582	-11.2393090267297	-0.915892629334556	-10.6541885301609	-21.6357403243829	1.25748093069999	
59400000	-22.1669939360675	43.8934680191328	-0.945653568525235	-9.83105242589152	-0.788687978314075	-10.4541479806964	-17.8606905021808	3.39319100761998	
59600000	-20.1713256963387	30.5270678241244	-0.913977599123154	-9.23763535804487	-0.543589841375537	-8.88359607747046	-22.1092355118872	10.6286860593001	
59800000	-17.6864866603541	-6.15369940750239	-0.950742317459367	-10.9754063154548	-0.509882740949789	-11.5433200287335	-28.0736067618985	-13.0511746921279	
60000000	-19.7298455985847	4.77509181175784	-0.693382594287546	-9.11152525342646	-0.807177125502904	-8.82248079164536	-26.1501872563967	-29.9594353916452	
60200000	-21.3999195727942	-7.06889954978847	-0.919747192197631	-10.6129755115725	-0.888704502009398	-11.4334572246886	-19.8363812568112	14.4678988720837	
60400000	-23.6519889941707	-8.36594421107388	-0.814987622332521	-11.0164944834759	-0.856954102723717	-8.39318388861406	-19.0020111683376	13.0973930432128	
60600000	-19.7707551351539	-32.9383378205789	-0.615339104909942	-9.5806734941767	-0.936848303167438	-10.3034402269404	-21.141439846254	19.7433928181165	
60800000	-27.4262910513387	6.81628639149426	-0.848892399540756	-11.7872423192507	-0.679935225265861	-9.82723512675508	-18.0463980004325	11.9947722931809	
61000000	-23.9912765026573	25.2792901748649	-1.031055548673	-10.298669118486	-0.647329619625115	-11.0174064853308	-21.7615682059047	26.2554357680314	
61200000	-20.7994280246034	25.7086973848043	-0.896266770141857	-10.1261381088853	-0.556668948751497	-9.72253501559684	-21.2023071967045	16.7614382279088	
61400000	-21.7830978197503	-26.9179688031937	-1.18536588576389	-7.64399759870146	-0.664055086891752	-9.9700959553314	-23.8119641729621	29.1591190608662	
61600000	-19.7137261873865	20.1237605442355	-0.768676540573412	-10.4073767365212	-0.777655016777398	-10.0578241083738	-21.5924034700157	-6.56431614340463	
61800000	-20.8136848634112	-7.63804885955186	-0.603367870295274	-10.6840842841254	-0.720458782191343	-11.0305004848789	-18.7380149529021	3.01658094492875	
62000000	-27.513090001861	-29.3366655280792	-0.781373772310207	-10.1685633204052	-0.755871443208093	-9.87688373303395	-21.741580737138	10.1139944833456	
62200000	-23.0404356190402	21.5374777294445	-0.864113760506727	-9.50036712763521	-0.663639797767458	-10.8926619253246	-18.5087267246957	5.68767284970332	
62400000	-20.262759979839	-2.23186276468083	-0.641760388172486	-10.9424616067416	-0.72897407047393	-11.788981799246	-24.4888360420089	31.0270424047811	
62600000	-19.7991749983107	2.937856117489	-0.792600934141995	-10.6586961576063	-0.884353034042964	-13.3537484803787	-21.6658614257853	35.2126002796881	
62800000	-23.4977409770517	-23.5075855378979	-0.802479047027215	-11.9752906085491	-0.476659869721404	-10.553867118144	-19.4439674203984	37.8926833758346	
63000000	-16.30780664374	-10.3039346266658	-0.565722711797955	-11.2322345328494	-0.889486354283765	-10.7496635438497	-24.7129973831884	20.9807518991588	
63200000	-23.8700584646517	35.2931655187569	-0.904999551566787	-11.9318351838807	-0.89924867123841	-9.98214550048453	-20.0524129534678	14.2695649702407	
63400000	-20.4453527040737	19.600609802297	-0.858971414551025	-7.80959019482242	-0.846923313383275	-12.0772975332786	-23.2232003941921	-10.6370639939892	
63600000	-20.8110635667335	-20.4686690801427	-0.744716345601717	-10.6784527414516	-0.725322269634804	-14.2020736286272	-19.2091813268017	31.5881728854956	
63800000	-19.737237869763	-19.018405253322	-1.04557728448261	-11.446695370022	-0.855886675891673	-11.0256178504817	-22.7196239593707	10.5230340195361	
64000000	-17.6227924182011	-2.40120317175968	-0.679500781083749	-11.6007958040244	-0.66377945924274	-11.8838210242101	-25.0941927459893	31.6149211906872	
64200000	-21.2334719520248	-20.3549139276606	-1.06465829074325	-12.1817964051774	-0.508778960287941	-11.8372519583969	-20.2871456507279	18.3147810243953	
64400000	-17.2258049343725	11.7134030299584	-0.549575196781505	-11.8133344741939	-0.922257668220497	-10.4335936734747	-19.4763453880862	38.1118944330125	
64600000	-17.8948057080725	-1.83274362316273	-0.834543617425316	-10.2106479775492	-0.866426047953023	-8.91974542458289	-21.3518996834776	35.4352527718077	
64800000	-23.8142944863425	28.6838848731523	-0.721997615414556	-12.8246355496438	-0.735580761275093	-11.5758132210918	-17.8843334250151	6.08079416626073	
65000000	-20.3904574343682	4.95547662858416	-0.754700058497043	-11.315708465549	-0.757024501461398	-10.0495326600966	-21.0785558146194	-8.78309004391119	
65200000	-18.9006458538868	20.4595062743923	-0.852589794137625	-12.8857979191189	-0.632709177156963	-9.99615957114778	-21.7935755551765	-33.5223717509534	
65400000	-22.7365738963474	12.2080321178503	-0.456392820339098	-11.1427175721454	-0.906078042464806	-10.8281237052902	-18.2849093547875	18.2499753016026	
65600000	-20.0715966666349	36.0487705657762	-0.565377240956901	-12.7110530037844	-0.923003297853537	-11.3062440275055	-20.5168351548507	3.11386522533991	
65800000	-19.9806409108895	37.6608337172964	-0.92032216527718	-12.2378249264807	-1.06781214145091	-10.5529000177185	-20.4130103659414	-9.2561134130731	
66000000	-26.4955495234806	45.1964150222142	-0.644242387856395	-13.261406371853	-0.585340864553357	-9.20391122312093	-20.4767121144457	-7.18957031120039	
66200000	-16.1017978932098	3.25579954637985	-0.701656379649045	-11.4826780061938	-0.581871980048997	-11.3951422354013	-22.9397034380791	27.1589251177232	
66400000	-18.3247739591917	3.7813893353344	-1.01142127033405	-11.5282799145286	-0.958679900963861	-12.2916096743601	-22.041234643838	7.20963835725768	
66600000	-20.4865107450326	-0.933245033246571	-0.839011446711961	-12.6828295328635	-0.890800763943974	-11.087559558896	-18.7385560870391	19.0531941400562	
66800000	-18.2408830894932	5.04909167162929	-0.999174340526193	-11.7519680919454	-1.0799974640064	-11.5140710231443	-21.6881529382719	16.6585762052974	
67000000	-20.1612450647035	-31.1593751959495	-0.906230852163667	-11.5377087027205	-0.835803572426524	-11.2181560355405	-22.3555656900988	35.9067714373331	
67200000	-21.5783142553549	8.34668012767312	-1.0675777254504	-11.2518408900232	-0.452051062386749	-9.33125195774562	-22.0473249566793	4.55854977651632	
67400000	-24.5399730050036	18.2767847747794	-0.859459506448252	-13.1599376067966	-0.443951178794525	-11.9987387054733	-19.2922514044749	13.1903107689553	
67600000	-21.8728967358853	-22.9584152106366	-0.910464978336695	-10.9972745764993	-0.78765452179184	-11.5637684733383	-17.5193693667377	15.3027654409947	
67800000	-18.6409856355431	39.6173158697661	-1.16162576959069	-11.879220820114	-1.0270519545479	-11.2494890558049	-22.1326497739732	-4.15889998107915	
68000000	-19.7611691672598	5.44424150426036	-0.970239279500559	-12.9148843663251	-1.06204399421729	-10.5776132653107	-20.9657890040539	30.1643746290273	
68200000	-29.9489358781374	19.0466381371212	-0.785933916219382	-10.223481018262	-0.760075755095623	-10.7613841075305	-19.9267184560037	4.18109070631341	
68400000	-22.1015192375468	14.1518288162016	-0.760737835589613	-10.681598024716	-0.865336104186078	-13.5050288382047	-21.7004428144227	-1.74605757055112	
68600000	-21.1913170371683	4.80112295873224	-1.13441950663657	-10.9178361885793	-0.768988183590346	-11.1617824959911	-22.7598957271014	28.7946403752215	
68800000	-19.7084821116423	3.15377575785608	-0.895297127022143	-12.4875038034144	-0.826856348138631	-11.8430008055492	-22.0475189319432	23.4794155988407	
69000000	-20.2019265778234	-6.68454006540935	-0.466168909293231	-12.5679145483444	-0.794879638867728	-11.5925845926056	-26.637958093325	-3.99208035987525	
69200000	-18.5790179721061	-10.5583763314303	-0.499115814854429	-11.6925369263853	-0.713398286964743	-11.4455838694715	-23.9038106342643	9.79001564501109	
69400000	-18.9854595914177	30.3528883128251	-1.3229359518901	-12.0206600160347	-0.951249135959321	-12.4910710931697	-23.7883347529644	9.5795177309017	
69600000	-22.1752796259426	13.9949194276479	-0.842767934280681	-10.8904866867045	-0.852658079499676	-15.9556889456714	-18.6992769008123	3.26695557820314	
69800000	-21.618837447281	0.486409553282851	-0.709259520094919	-11.8114034930439	-0.869423758588646	-12.2782338703293	-19.4012475334121	14.7879192284731	
70000000	-19.1192011652905	-4.28805256370587	-0.791462812270784	-11.7645976913503	-0.940206256401319	-11.5351938148726	-21.8369026974217	1.37426983527303	
70200000	-25.7313497866016	-24.1645392638895	-0.803939271042959	-12.5006510551083	-0.941243363171574	-12.241222407803	-16.3125596522211	11.5603955884983	
70400000	-19.615198489889	8.59077971177638	-0.725220945653412	-13.1922920601358	-0.635678120679684	-12.9362215132891	-22.3000151015037	11.8557030322577	
70600000	-20.2283841139468	7.38661467632259	-0.949203426173593	-11.0996962495769	-0.831480196788311	-11.851944130092	-24.1753575525871	11.7118610205321	
70800000	-18.0652084169869	-1.60863974744605	-0.792744601104124	-11.8681733056967	-0.734822614048489	-13.0921428413002	-19.7879985906205	20.6439221795533	
71000000	-24.5561496357297	2.24594262092527	-0.82208816477201	-12.1250009965237	-0.651146403850623	-13.6097906222827	-19.5076552968521	16.9951239527615	
71200000	-22.8474067618534	18.7319478550465	-0.67439192808583	-11.7953854313653	-0.879316337606611	-13.3992622822316	-18.3244052355672	24.6420191607163	
71400000	-19.9918248236358	-5.29432025527106	-0.871524469246023	-13.0551059184358	-1.05357490371274	-11.8303702435638	-20.3380418126154	10.465766847572	
71600000	-32.4774968357079	-66.6261194985297	-0.725281078507531	-14.8478585481575	-0.67433376721027	-11.9014111126985	-20.8953599595442	13.7220885157558	
71800000	-20.2130549441818	5.42416745360982	-1.00548369458092	-14.1978736044586	-1.06521027675627	-14.0548963744514	-19.7461208666848	12.0547241735029	
72000000	-24.5462018579744	38.739534069847	-0.558185353982855	-13.7012072769979	-0.570189800471358	-10.1723023122409	-18.3179714696628	29.4149817542744	
72200000	-19.9922814409165	9.77081910882079	-0.95999937037817	-14.7888802377525	-0.669528835686	-12.8530281295586	-18.762350773013	13.6898235438349	
72400000	-18.1819940797248	2.924642378985	-0.552371944111802	-11.0767718182263	-0.838864613067869	-13.093411049838	-24.2618399847857	7.1857203622841	
72600000	-23.368726513296	-4.43668578917275	-0.638061146619285	-10.8926066955475	-0.762330956879002	-12.8040482512979	-19.2688466724732	24.1582678447307	
72800000	-19.4275664070843	-8.98965280603758	-0.933676066578411	-12.0116228596267	-0.953267362766765	-12.888079455836	-23.1984319399913	30.7882889136123	
73000000	-17.6281447330072	-5.70322436430701	-0.69785544192842	-13.6310841409843	-1.06770363944408	-13.9617182138004	-20.6033965210513	14.9531606092042	
73200000	-20.140449126782	3.4844468451391	-0.913840143327669	-11.8148620602158	-0.890928980495352	-10.6929235733428	-20.4665588965146	18.9688648353839	
73400000	-20.0301436962927	-3.25263139350193	-0.718247635366779	-12.046487470619	-0.59462453908998	-12.0030104237586	-19.0939113160565	28.7038713023641	
73600000	-20.941729618612	-15.8980479179902	-0.705003225672205	-12.2932039077565	-0.901012908976315	-13.2315651534445	-26.9729755141188	1.50575006337961	
73800000	-20.7793462537076	20.2771899441343	-0.910068813694204	-12.7779557892353	-0.805465160615958	-13.0108216158437	-17.4597865793798	3.53998407293878	
74000000	-19.8130652096775	8.50182578691623	-0.628286071818751	-13.6789762655062	-0.594275363486481	-13.1135206733283	-19.8139061670981	19.2915176377684	
74200000	-22.3266641922401	19.8784707927522	-0.649261104265748	-11.2689610215501	-0.82453620779113	-12.716389013373	-20.2598476674011	16.4492334958925	
74400000	-20.2316942248503	-3.77118301197324	-0.577024972553936	-14.3648600190191	-0.632475856018769	-12.8648209176933	-22.1706714543148	20.8092069768076	
74600000	-21.4736981740195	8.19072935629966	-1.04219598431054	-13.6381645139791	-0.607290309965282	-13.5907493663484	-19.4058068876139	-1.07579908061102	
74800000	-18.9949349008618	6.13611879067631	-0.879753698437323	-13.9141055530456	-0.714602451245297	-14.0041601162633	-24.202430496235	38.2248497942894	
75000000	-21.0672141993648	14.5573013781863	-0.866361856052165	-13.1356719236336	-0.554205824320485	-12.1294411526078	-22.7700495340975	24.9304221758782	
75200000	-24.323728788255	19.0652415590398	-0.899237616435234	-13.4220209530192	-0.867890292395694	-12.7524770087855	-20.0026268082105	12.8433973962395	
